Time [s], Analyzer Name, Decoded Protocol Result
5.016211020000000,SPI,MOSI: 0x02;  MISO: 0x00
5.016291060000000,SPI,MOSI: 0x0F;  MISO: 0x00
5.016553300000000,SPI,MOSI: 0xD4;  MISO: 0x00
5.016633340000000,SPI,MOSI: 0x8D;  MISO: 0x00
5.016873760000000,SPI,MOSI: 0xD6;  MISO: 0x00
5.016953780000000,SPI,MOSI: 0x3E;  MISO: 0x00
5.017338820000000,SPI,MOSI: 0xDA;  MISO: 0x00
5.017418860000000,SPI,MOSI: 0x1E;  MISO: 0x00
5.017661900000000,SPI,MOSI: 0xD8;  MISO: 0x00
5.017741920000000,SPI,MOSI: 0x00;  MISO: 0x00
5.017979320000000,SPI,MOSI: 0x2A;  MISO: 0x00
5.018059340000000,SPI,MOSI: 0x40;  MISO: 0x00
5.018297740000000,SPI,MOSI: 0x22;  MISO: 0x00
5.018377760000000,SPI,MOSI: 0x3D;  MISO: 0x00
5.018629520000000,SPI,MOSI: 0x28;  MISO: 0x00
5.018709560000000,SPI,MOSI: 0xEB;  MISO: 0x00
5.019005980000000,SPI,MOSI: 0x43;  MISO: 0x00
5.019308380000000,SPI,MOSI: 0x28;  MISO: 0x00
5.019388420000000,SPI,MOSI: 0x03;  MISO: 0x00
5.030200280000000,SPI,MOSI: 0x01;  MISO: 0x00
5.030280300000000,SPI,MOSI: 0x57;  MISO: 0x00
5.030360340000000,SPI,MOSI: 0x69;  MISO: 0x00
5.030440360000000,SPI,MOSI: 0x00;  MISO: 0x00
5.031576140000000,SPI,MOSI: 0x40;  MISO: 0x00
5.031898320000000,SPI,MOSI: 0x04;  MISO: 0x00
5.031978340000000,SPI,MOSI: 0xF7;  MISO: 0x00
5.032260920000000,SPI,MOSI: 0x08;  MISO: 0x00
5.032340960000000,SPI,MOSI: 0xDF;  MISO: 0x00
5.032828960000000,SPI,MOSI: 0x08;  MISO: 0x00
5.032908980000000,SPI,MOSI: 0x00;  MISO: 0x00
5.033160860000000,SPI,MOSI: 0x14;  MISO: 0x00
5.033240900000000,SPI,MOSI: 0xBF;  MISO: 0x00
5.033487620000000,SPI,MOSI: 0x14;  MISO: 0x00
5.033567640000000,SPI,MOSI: 0x80;  MISO: 0x00
5.033815900000000,SPI,MOSI: 0x02;  MISO: 0x00
5.033895920000000,SPI,MOSI: 0x00;  MISO: 0x00
5.034149840000000,SPI,MOSI: 0x12;  MISO: 0x00
5.034229860000000,SPI,MOSI: 0x26;  MISO: 0x00
5.034773400000000,SPI,MOSI: 0x02;  MISO: 0x00
5.034853420000000,SPI,MOSI: 0x0C;  MISO: 0x00
5.035110120000000,SPI,MOSI: 0x1A;  MISO: 0x00
5.035190140000000,SPI,MOSI: 0x81;  MISO: 0x00
5.035439480000000,SPI,MOSI: 0x1A;  MISO: 0x00
5.035519500000000,SPI,MOSI: 0x80;  MISO: 0x00
5.035766200000000,SPI,MOSI: 0x08;  MISO: 0x00
5.035846240000000,SPI,MOSI: 0xF0;  MISO: 0x00
5.036107720000000,SPI,MOSI: 0x08;  MISO: 0x00
5.036187740000000,SPI,MOSI: 0x79;  MISO: 0x00
5.036449700000000,SPI,MOSI: 0x08;  MISO: 0x00
5.036529740000000,SPI,MOSI: 0xAB;  MISO: 0x00
5.036789540000000,SPI,MOSI: 0x08;  MISO: 0x00
5.036869560000000,SPI,MOSI: 0x71;  MISO: 0x00
5.037129660000000,SPI,MOSI: 0x08;  MISO: 0x00
5.037209700000000,SPI,MOSI: 0xB9;  MISO: 0x00
5.037469920000000,SPI,MOSI: 0x08;  MISO: 0x00
5.037549940000000,SPI,MOSI: 0xA8;  MISO: 0x00
5.037811480000000,SPI,MOSI: 0x88;  MISO: 0x00
5.037891520000000,SPI,MOSI: 0x3C;  MISO: 0x00
5.038151520000000,SPI,MOSI: 0x08;  MISO: 0x00
5.038231540000000,SPI,MOSI: 0x28;  MISO: 0x00
5.038491780000000,SPI,MOSI: 0x88;  MISO: 0x00
5.038571820000000,SPI,MOSI: 0xD9;  MISO: 0x00
5.038831820000000,SPI,MOSI: 0x08;  MISO: 0x00
5.038911840000000,SPI,MOSI: 0x45;  MISO: 0x00
5.039174160000000,SPI,MOSI: 0x08;  MISO: 0x00
5.039254180000000,SPI,MOSI: 0x77;  MISO: 0x00
5.039513020000000,SPI,MOSI: 0x08;  MISO: 0x00
5.039593040000000,SPI,MOSI: 0xF3;  MISO: 0x00
5.039852800000000,SPI,MOSI: 0x08;  MISO: 0x00
5.039932820000000,SPI,MOSI: 0xB0;  MISO: 0x00
5.040193140000000,SPI,MOSI: 0x88;  MISO: 0x00
5.040533580000000,SPI,MOSI: 0x08;  MISO: 0x00
5.040613620000000,SPI,MOSI: 0x21;  MISO: 0x00
5.040871940000000,SPI,MOSI: 0x88;  MISO: 0x00
5.040951980000000,SPI,MOSI: 0x2A;  MISO: 0x00
5.041213420000000,SPI,MOSI: 0x08;  MISO: 0x00
5.041293460000000,SPI,MOSI: 0xC9;  MISO: 0x00
5.041554800000000,SPI,MOSI: 0x08;  MISO: 0x00
5.041634820000000,SPI,MOSI: 0x03;  MISO: 0x00
5.041893100000000,SPI,MOSI: 0x08;  MISO: 0x00
5.041973120000000,SPI,MOSI: 0xD8;  MISO: 0x00
5.042233060000000,SPI,MOSI: 0x08;  MISO: 0x00
5.042313080000000,SPI,MOSI: 0x4E;  MISO: 0x00
5.042624460000000,SPI,MOSI: 0x1E;  MISO: 0x00
5.042913760000000,SPI,MOSI: 0x08;  MISO: 0x00
5.042993780000000,SPI,MOSI: 0xC2;  MISO: 0x00
5.043253380000000,SPI,MOSI: 0x08;  MISO: 0x00
5.043333400000000,SPI,MOSI: 0x68;  MISO: 0x00
5.043593760000000,SPI,MOSI: 0x08;  MISO: 0x00
5.043673800000000,SPI,MOSI: 0x63;  MISO: 0x00
5.043934140000000,SPI,MOSI: 0x08;  MISO: 0x00
5.044014160000000,SPI,MOSI: 0xC4;  MISO: 0x00
5.044355840000000,SPI,MOSI: 0x88;  MISO: 0x00
5.044435880000000,SPI,MOSI: 0xCC;  MISO: 0x00
5.044692220000000,SPI,MOSI: 0x08;  MISO: 0x00
5.044772260000000,SPI,MOSI: 0x05;  MISO: 0x00
5.045031940000000,SPI,MOSI: 0x08;  MISO: 0x00
5.045111960000000,SPI,MOSI: 0x66;  MISO: 0x00
5.045372840000000,SPI,MOSI: 0x08;  MISO: 0x00
5.045452860000000,SPI,MOSI: 0x78;  MISO: 0x00
5.045713400000000,SPI,MOSI: 0x08;  MISO: 0x00
5.045793440000000,SPI,MOSI: 0xD9;  MISO: 0x00
5.046052820000000,SPI,MOSI: 0x08;  MISO: 0x00
5.046132860000000,SPI,MOSI: 0x41;  MISO: 0x00
5.046393560000000,SPI,MOSI: 0x08;  MISO: 0x00
5.046473580000000,SPI,MOSI: 0x22;  MISO: 0x00
5.046732140000000,SPI,MOSI: 0x08;  MISO: 0x00
5.046812180000000,SPI,MOSI: 0x5E;  MISO: 0x00
5.047071880000000,SPI,MOSI: 0x08;  MISO: 0x00
5.047151900000000,SPI,MOSI: 0x90;  MISO: 0x00
5.047412820000000,SPI,MOSI: 0x08;  MISO: 0x00
5.047492840000000,SPI,MOSI: 0xC1;  MISO: 0x00
5.047753800000000,SPI,MOSI: 0x08;  MISO: 0x00
5.047833820000000,SPI,MOSI: 0xB5;  MISO: 0x00
5.048093760000000,SPI,MOSI: 0x08;  MISO: 0x00
5.048173780000000,SPI,MOSI: 0x8F;  MISO: 0x00
5.048433300000000,SPI,MOSI: 0x08;  MISO: 0x00
5.048513320000000,SPI,MOSI: 0xB1;  MISO: 0x00
5.048771500000000,SPI,MOSI: 0x08;  MISO: 0x00
5.048851520000000,SPI,MOSI: 0xF7;  MISO: 0x00
5.049111200000000,SPI,MOSI: 0x08;  MISO: 0x00
5.049191220000000,SPI,MOSI: 0x1F;  MISO: 0x00
5.049449700000000,SPI,MOSI: 0x08;  MISO: 0x00
5.049529740000000,SPI,MOSI: 0x8D;  MISO: 0x00
5.049789480000000,SPI,MOSI: 0x08;  MISO: 0x00
5.049869500000000,SPI,MOSI: 0xDE;  MISO: 0x00
5.050128060000000,SPI,MOSI: 0x08;  MISO: 0x00
5.050208100000000,SPI,MOSI: 0x9A;  MISO: 0x00
5.050466840000000,SPI,MOSI: 0x08;  MISO: 0x00
5.050546880000000,SPI,MOSI: 0xEB;  MISO: 0x00
5.050805720000000,SPI,MOSI: 0x08;  MISO: 0x00
5.050885760000000,SPI,MOSI: 0xAE;  MISO: 0x00
5.051147580000000,SPI,MOSI: 0x88;  MISO: 0x00
5.051227620000000,SPI,MOSI: 0xD6;  MISO: 0x00
5.051490480000000,SPI,MOSI: 0x08;  MISO: 0x00
5.051570500000000,SPI,MOSI: 0x79;  MISO: 0x00
5.051832380000000,SPI,MOSI: 0x08;  MISO: 0x00
5.051912420000000,SPI,MOSI: 0xDA;  MISO: 0x00
5.052171600000000,SPI,MOSI: 0x08;  MISO: 0x00
5.052251640000000,SPI,MOSI: 0xF6;  MISO: 0x00
5.052514340000000,SPI,MOSI: 0x08;  MISO: 0x00
5.052594380000000,SPI,MOSI: 0x14;  MISO: 0x00
5.052855120000000,SPI,MOSI: 0x08;  MISO: 0x00
5.052935140000000,SPI,MOSI: 0x43;  MISO: 0x00
5.053195960000000,SPI,MOSI: 0x08;  MISO: 0x00
5.053275980000000,SPI,MOSI: 0x60;  MISO: 0x00
5.053535000000000,SPI,MOSI: 0x08;  MISO: 0x00
5.053615020000000,SPI,MOSI: 0xF2;  MISO: 0x00
5.053873620000000,SPI,MOSI: 0x08;  MISO: 0x00
5.053953640000000,SPI,MOSI: 0x25;  MISO: 0x00
5.054312140000000,SPI,MOSI: 0x08;  MISO: 0x00
5.054392180000000,SPI,MOSI: 0xC3;  MISO: 0x00
5.054662920000000,SPI,MOSI: 0x08;  MISO: 0x00
5.054742940000000,SPI,MOSI: 0x1C;  MISO: 0x00
5.055003700000000,SPI,MOSI: 0x08;  MISO: 0x00
5.055083740000000,SPI,MOSI: 0x5E;  MISO: 0x00
5.055345160000000,SPI,MOSI: 0x08;  MISO: 0x00
5.055425180000000,SPI,MOSI: 0x15;  MISO: 0x00
5.055688060000000,SPI,MOSI: 0x08;  MISO: 0x00
5.055768100000000,SPI,MOSI: 0x08;  MISO: 0x00
5.056027760000000,SPI,MOSI: 0x08;  MISO: 0x00
5.056107780000000,SPI,MOSI: 0x38;  MISO: 0x00
5.056366540000000,SPI,MOSI: 0x08;  MISO: 0x00
5.056446580000000,SPI,MOSI: 0x88;  MISO: 0x00
5.056708700000000,SPI,MOSI: 0x08;  MISO: 0x00
5.056788720000000,SPI,MOSI: 0x09;  MISO: 0x00
5.057048720000000,SPI,MOSI: 0x08;  MISO: 0x00
5.057128760000000,SPI,MOSI: 0x5C;  MISO: 0x00
5.057388140000000,SPI,MOSI: 0x08;  MISO: 0x00
5.057468160000000,SPI,MOSI: 0x34;  MISO: 0x00
5.057728040000000,SPI,MOSI: 0x08;  MISO: 0x00
5.057808080000000,SPI,MOSI: 0xEE;  MISO: 0x00
5.058067840000000,SPI,MOSI: 0x08;  MISO: 0x00
5.058147860000000,SPI,MOSI: 0x41;  MISO: 0x00
5.058407120000000,SPI,MOSI: 0x08;  MISO: 0x00
5.058487140000000,SPI,MOSI: 0x8D;  MISO: 0x00
5.058749920000000,SPI,MOSI: 0x08;  MISO: 0x00
5.059091200000000,SPI,MOSI: 0x08;  MISO: 0x00
5.059171240000000,SPI,MOSI: 0xB1;  MISO: 0x00
5.059432420000000,SPI,MOSI: 0x08;  MISO: 0x00
5.059512440000000,SPI,MOSI: 0x48;  MISO: 0x00
5.059771760000000,SPI,MOSI: 0x08;  MISO: 0x00
5.059851800000000,SPI,MOSI: 0x98;  MISO: 0x00
5.060115040000000,SPI,MOSI: 0x08;  MISO: 0x00
5.060195080000000,SPI,MOSI: 0xA8;  MISO: 0x00
5.060455980000000,SPI,MOSI: 0x08;  MISO: 0x00
5.060536000000000,SPI,MOSI: 0x0D;  MISO: 0x00
5.060796840000000,SPI,MOSI: 0x08;  MISO: 0x00
5.060876880000000,SPI,MOSI: 0x9F;  MISO: 0x00
5.061137100000000,SPI,MOSI: 0x08;  MISO: 0x00
5.061217120000000,SPI,MOSI: 0x59;  MISO: 0x00
5.061476960000000,SPI,MOSI: 0x08;  MISO: 0x00
5.061556980000000,SPI,MOSI: 0x1C;  MISO: 0x00
5.061817580000000,SPI,MOSI: 0x08;  MISO: 0x00
5.062239020000000,SPI,MOSI: 0x08;  MISO: 0x00
5.062319040000000,SPI,MOSI: 0x0C;  MISO: 0x00
5.062605860000000,SPI,MOSI: 0x08;  MISO: 0x00
5.062685880000000,SPI,MOSI: 0x9D;  MISO: 0x00
5.062946760000000,SPI,MOSI: 0x08;  MISO: 0x00
5.063026780000000,SPI,MOSI: 0xF0;  MISO: 0x00
5.063288420000000,SPI,MOSI: 0x08;  MISO: 0x00
5.063368440000000,SPI,MOSI: 0xAE;  MISO: 0x00
5.063628200000000,SPI,MOSI: 0x08;  MISO: 0x00
5.063708240000000,SPI,MOSI: 0x1E;  MISO: 0x00
5.063968500000000,SPI,MOSI: 0x08;  MISO: 0x00
5.064048540000000,SPI,MOSI: 0xF8;  MISO: 0x00
5.064380840000000,SPI,MOSI: 0x08;  MISO: 0x00
5.064460860000000,SPI,MOSI: 0xB3;  MISO: 0x00
5.064712820000000,SPI,MOSI: 0x08;  MISO: 0x00
5.064792860000000,SPI,MOSI: 0xD5;  MISO: 0x00
5.065053800000000,SPI,MOSI: 0x08;  MISO: 0x00
5.065133840000000,SPI,MOSI: 0x6D;  MISO: 0x00
5.065394580000000,SPI,MOSI: 0x08;  MISO: 0x00
5.065474600000000,SPI,MOSI: 0x6E;  MISO: 0x00
5.065734700000000,SPI,MOSI: 0x08;  MISO: 0x00
5.065814740000000,SPI,MOSI: 0x0C;  MISO: 0x00
5.066077640000000,SPI,MOSI: 0x08;  MISO: 0x00
5.066157680000000,SPI,MOSI: 0x3D;  MISO: 0x00
5.066416540000000,SPI,MOSI: 0x08;  MISO: 0x00
5.066496560000000,SPI,MOSI: 0x76;  MISO: 0x00
5.066754620000000,SPI,MOSI: 0x08;  MISO: 0x00
5.066834660000000,SPI,MOSI: 0xC6;  MISO: 0x00
5.067096080000000,SPI,MOSI: 0x08;  MISO: 0x00
5.067176100000000,SPI,MOSI: 0xAC;  MISO: 0x00
5.067439420000000,SPI,MOSI: 0x88;  MISO: 0x00
5.067519460000000,SPI,MOSI: 0x2E;  MISO: 0x00
5.067832780000000,SPI,MOSI: 0x1F;  MISO: 0x00
5.068123300000000,SPI,MOSI: 0x08;  MISO: 0x00
5.068203320000000,SPI,MOSI: 0x8E;  MISO: 0x00
5.068464340000000,SPI,MOSI: 0x08;  MISO: 0x00
5.068544360000000,SPI,MOSI: 0x5D;  MISO: 0x00
5.068808880000000,SPI,MOSI: 0x08;  MISO: 0x00
5.068888920000000,SPI,MOSI: 0x7B;  MISO: 0x00
5.069150700000000,SPI,MOSI: 0x08;  MISO: 0x00
5.069230740000000,SPI,MOSI: 0x8E;  MISO: 0x00
5.069489500000000,SPI,MOSI: 0x08;  MISO: 0x00
5.069569520000000,SPI,MOSI: 0x61;  MISO: 0x00
5.069829360000000,SPI,MOSI: 0x08;  MISO: 0x00
5.069909400000000,SPI,MOSI: 0xEE;  MISO: 0x00
5.070170200000000,SPI,MOSI: 0x08;  MISO: 0x00
5.070250220000000,SPI,MOSI: 0xCE;  MISO: 0x00
5.070510160000000,SPI,MOSI: 0x08;  MISO: 0x00
5.070590180000000,SPI,MOSI: 0x33;  MISO: 0x00
5.070848680000000,SPI,MOSI: 0x08;  MISO: 0x00
5.071186380000000,SPI,MOSI: 0x08;  MISO: 0x00
5.071266400000000,SPI,MOSI: 0xB2;  MISO: 0x00
5.071526280000000,SPI,MOSI: 0x08;  MISO: 0x00
5.071606320000000,SPI,MOSI: 0x32;  MISO: 0x00
5.071865900000000,SPI,MOSI: 0x08;  MISO: 0x00
5.071945940000000,SPI,MOSI: 0x9E;  MISO: 0x00
5.072206820000000,SPI,MOSI: 0x08;  MISO: 0x00
5.072286860000000,SPI,MOSI: 0x29;  MISO: 0x00
5.072547080000000,SPI,MOSI: 0x08;  MISO: 0x00
5.072627120000000,SPI,MOSI: 0x5D;  MISO: 0x00
5.072889040000000,SPI,MOSI: 0x08;  MISO: 0x00
5.072969060000000,SPI,MOSI: 0x49;  MISO: 0x00
5.073231760000000,SPI,MOSI: 0x08;  MISO: 0x00
5.073311800000000,SPI,MOSI: 0x33;  MISO: 0x00
5.073573380000000,SPI,MOSI: 0x08;  MISO: 0x00
5.073653400000000,SPI,MOSI: 0x0E;  MISO: 0x00
5.073915620000000,SPI,MOSI: 0x08;  MISO: 0x00
5.073995640000000,SPI,MOSI: 0xD0;  MISO: 0x00
5.074358420000000,SPI,MOSI: 0x08;  MISO: 0x00
5.074438440000000,SPI,MOSI: 0x63;  MISO: 0x00
5.074692940000000,SPI,MOSI: 0x08;  MISO: 0x00
5.074772980000000,SPI,MOSI: 0xE7;  MISO: 0x00
5.075034840000000,SPI,MOSI: 0x08;  MISO: 0x00
5.075114860000000,SPI,MOSI: 0xAD;  MISO: 0x00
5.075375000000000,SPI,MOSI: 0x08;  MISO: 0x00
5.075455040000000,SPI,MOSI: 0x0B;  MISO: 0x00
5.075716980000000,SPI,MOSI: 0x08;  MISO: 0x00
5.075797000000000,SPI,MOSI: 0xF8;  MISO: 0x00
5.076057860000000,SPI,MOSI: 0x08;  MISO: 0x00
5.076137880000000,SPI,MOSI: 0x00;  MISO: 0x00
5.076398960000000,SPI,MOSI: 0x88;  MISO: 0x00
5.076479000000000,SPI,MOSI: 0xA0;  MISO: 0x00
5.076742280000000,SPI,MOSI: 0x08;  MISO: 0x00
5.076822320000000,SPI,MOSI: 0x3D;  MISO: 0x00
5.077082820000000,SPI,MOSI: 0x08;  MISO: 0x00
5.077162860000000,SPI,MOSI: 0xC0;  MISO: 0x00
5.077422060000000,SPI,MOSI: 0x08;  MISO: 0x00
5.077775100000000,SPI,MOSI: 0x08;  MISO: 0x00
5.078115240000000,SPI,MOSI: 0x08;  MISO: 0x00
5.078195260000000,SPI,MOSI: 0x22;  MISO: 0x00
5.078457560000000,SPI,MOSI: 0x08;  MISO: 0x00
5.078537580000000,SPI,MOSI: 0x19;  MISO: 0x00
5.078797540000000,SPI,MOSI: 0x08;  MISO: 0x00
5.078877560000000,SPI,MOSI: 0xE4;  MISO: 0x00
5.079137400000000,SPI,MOSI: 0x08;  MISO: 0x00
5.079217420000000,SPI,MOSI: 0x3C;  MISO: 0x00
5.079518960000000,SPI,MOSI: 0x08;  MISO: 0x00
5.079599000000000,SPI,MOSI: 0x68;  MISO: 0x00
5.079884140000000,SPI,MOSI: 0x08;  MISO: 0x00
5.079964160000000,SPI,MOSI: 0x8E;  MISO: 0x00
5.080223580000000,SPI,MOSI: 0x08;  MISO: 0x00
5.080303600000000,SPI,MOSI: 0x03;  MISO: 0x00
5.080564340000000,SPI,MOSI: 0x08;  MISO: 0x00
5.080903420000000,SPI,MOSI: 0x08;  MISO: 0x00
5.080983440000000,SPI,MOSI: 0x60;  MISO: 0x00
5.081245040000000,SPI,MOSI: 0x08;  MISO: 0x00
5.081325080000000,SPI,MOSI: 0x1C;  MISO: 0x00
5.081586680000000,SPI,MOSI: 0x88;  MISO: 0x00
5.081666720000000,SPI,MOSI: 0x0F;  MISO: 0x00
5.081925440000000,SPI,MOSI: 0x08;  MISO: 0x00
5.082005480000000,SPI,MOSI: 0x6B;  MISO: 0x00
5.082269700000000,SPI,MOSI: 0x08;  MISO: 0x00
5.082349720000000,SPI,MOSI: 0x6C;  MISO: 0x00
5.082612040000000,SPI,MOSI: 0x08;  MISO: 0x00
5.082692080000000,SPI,MOSI: 0x56;  MISO: 0x00
5.082953040000000,SPI,MOSI: 0x08;  MISO: 0x00
5.083033060000000,SPI,MOSI: 0xF2;  MISO: 0x00
5.083294460000000,SPI,MOSI: 0x08;  MISO: 0x00
5.083374500000000,SPI,MOSI: 0xF9;  MISO: 0x00
5.083635140000000,SPI,MOSI: 0x08;  MISO: 0x00
5.083715180000000,SPI,MOSI: 0x65;  MISO: 0x00
5.083976560000000,SPI,MOSI: 0x08;  MISO: 0x00
5.084056580000000,SPI,MOSI: 0x7A;  MISO: 0x00
5.084384300000000,SPI,MOSI: 0x88;  MISO: 0x00
5.084464340000000,SPI,MOSI: 0x08;  MISO: 0x00
5.084730580000000,SPI,MOSI: 0x08;  MISO: 0x00
5.084810620000000,SPI,MOSI: 0xA4;  MISO: 0x00
5.085069900000000,SPI,MOSI: 0x08;  MISO: 0x00
5.085149920000000,SPI,MOSI: 0x19;  MISO: 0x00
5.085411060000000,SPI,MOSI: 0x08;  MISO: 0x00
5.085491080000000,SPI,MOSI: 0x18;  MISO: 0x00
5.085750300000000,SPI,MOSI: 0x08;  MISO: 0x00
5.085830340000000,SPI,MOSI: 0xC3;  MISO: 0x00
5.086091240000000,SPI,MOSI: 0x08;  MISO: 0x00
5.086171260000000,SPI,MOSI: 0x56;  MISO: 0x00
5.086432660000000,SPI,MOSI: 0x08;  MISO: 0x00
5.086512700000000,SPI,MOSI: 0x38;  MISO: 0x00
5.086772560000000,SPI,MOSI: 0x08;  MISO: 0x00
5.086852580000000,SPI,MOSI: 0xAC;  MISO: 0x00
5.087112280000000,SPI,MOSI: 0x88;  MISO: 0x00
5.087192320000000,SPI,MOSI: 0xDF;  MISO: 0x00
5.087451180000000,SPI,MOSI: 0x08;  MISO: 0x00
5.087531220000000,SPI,MOSI: 0x86;  MISO: 0x00
5.087789660000000,SPI,MOSI: 0x08;  MISO: 0x00
5.087869680000000,SPI,MOSI: 0xF0;  MISO: 0x00
5.088130340000000,SPI,MOSI: 0x88;  MISO: 0x00
5.088210380000000,SPI,MOSI: 0xC2;  MISO: 0x00
5.088722700000000,SPI,MOSI: 0x08;  MISO: 0x00
5.088802720000000,SPI,MOSI: 0x9E;  MISO: 0x00
5.089052500000000,SPI,MOSI: 0x08;  MISO: 0x00
5.089132540000000,SPI,MOSI: 0x01;  MISO: 0x00
5.089395280000000,SPI,MOSI: 0x08;  MISO: 0x00
5.089735660000000,SPI,MOSI: 0x08;  MISO: 0x00
5.089815680000000,SPI,MOSI: 0x3F;  MISO: 0x00
5.090079980000000,SPI,MOSI: 0x08;  MISO: 0x00
5.090160020000000,SPI,MOSI: 0xFC;  MISO: 0x00
5.090421900000000,SPI,MOSI: 0x08;  MISO: 0x00
5.090501920000000,SPI,MOSI: 0xD7;  MISO: 0x00
5.090760520000000,SPI,MOSI: 0x08;  MISO: 0x00
5.090840540000000,SPI,MOSI: 0x51;  MISO: 0x00
5.091101620000000,SPI,MOSI: 0x08;  MISO: 0x00
5.091181640000000,SPI,MOSI: 0xF9;  MISO: 0x00
5.091442540000000,SPI,MOSI: 0x08;  MISO: 0x00
5.091522560000000,SPI,MOSI: 0x7F;  MISO: 0x00
5.091782600000000,SPI,MOSI: 0x08;  MISO: 0x00
5.091862640000000,SPI,MOSI: 0xB3;  MISO: 0x00
5.092121380000000,SPI,MOSI: 0x08;  MISO: 0x00
5.092201400000000,SPI,MOSI: 0xB3;  MISO: 0x00
5.092462320000000,SPI,MOSI: 0x08;  MISO: 0x00
5.092542340000000,SPI,MOSI: 0x90;  MISO: 0x00
5.092803180000000,SPI,MOSI: 0x08;  MISO: 0x00
5.092883200000000,SPI,MOSI: 0xA4;  MISO: 0x00
5.093142680000000,SPI,MOSI: 0x08;  MISO: 0x00
5.093222700000000,SPI,MOSI: 0x7F;  MISO: 0x00
5.093483260000000,SPI,MOSI: 0x08;  MISO: 0x00
5.093563300000000,SPI,MOSI: 0x00;  MISO: 0x00
5.093822160000000,SPI,MOSI: 0x08;  MISO: 0x00
5.093902200000000,SPI,MOSI: 0x70;  MISO: 0x00
5.094163520000000,SPI,MOSI: 0x08;  MISO: 0x00
5.094243540000000,SPI,MOSI: 0x80;  MISO: 0x00
5.094571800000000,SPI,MOSI: 0x08;  MISO: 0x00
5.094651840000000,SPI,MOSI: 0x91;  MISO: 0x00
5.094914300000000,SPI,MOSI: 0x08;  MISO: 0x00
5.094994340000000,SPI,MOSI: 0x68;  MISO: 0x00
5.095254900000000,SPI,MOSI: 0x08;  MISO: 0x00
5.095334920000000,SPI,MOSI: 0x48;  MISO: 0x00
5.095594660000000,SPI,MOSI: 0x08;  MISO: 0x00
5.095674700000000,SPI,MOSI: 0x0B;  MISO: 0x00
5.095935380000000,SPI,MOSI: 0x08;  MISO: 0x00
5.096015400000000,SPI,MOSI: 0x03;  MISO: 0x00
5.096274400000000,SPI,MOSI: 0x08;  MISO: 0x00
5.096354440000000,SPI,MOSI: 0x13;  MISO: 0x00
5.096613940000000,SPI,MOSI: 0x08;  MISO: 0x00
5.096693960000000,SPI,MOSI: 0xF3;  MISO: 0x00
5.096954540000000,SPI,MOSI: 0x08;  MISO: 0x00
5.097034580000000,SPI,MOSI: 0x45;  MISO: 0x00
5.097293060000000,SPI,MOSI: 0x08;  MISO: 0x00
5.097373100000000,SPI,MOSI: 0x16;  MISO: 0x00
5.097633680000000,SPI,MOSI: 0x08;  MISO: 0x00
5.097713700000000,SPI,MOSI: 0xEC;  MISO: 0x00
5.097975780000000,SPI,MOSI: 0x08;  MISO: 0x00
5.098055800000000,SPI,MOSI: 0xD4;  MISO: 0x00
5.098314760000000,SPI,MOSI: 0x08;  MISO: 0x00
5.098394780000000,SPI,MOSI: 0xAC;  MISO: 0x00
5.098657480000000,SPI,MOSI: 0x08;  MISO: 0x00
5.098737500000000,SPI,MOSI: 0x01;  MISO: 0x00
5.098999700000000,SPI,MOSI: 0x08;  MISO: 0x00
5.099079720000000,SPI,MOSI: 0x71;  MISO: 0x00
5.099338900000000,SPI,MOSI: 0x08;  MISO: 0x00
5.099418940000000,SPI,MOSI: 0xD2;  MISO: 0x00
5.099675600000000,SPI,MOSI: 0x08;  MISO: 0x00
5.099755620000000,SPI,MOSI: 0x36;  MISO: 0x00
5.100017240000000,SPI,MOSI: 0x08;  MISO: 0x00
5.100097280000000,SPI,MOSI: 0xEF;  MISO: 0x00
5.100357780000000,SPI,MOSI: 0x08;  MISO: 0x00
5.100437820000000,SPI,MOSI: 0x4A;  MISO: 0x00
5.100698600000000,SPI,MOSI: 0x08;  MISO: 0x00
5.100778640000000,SPI,MOSI: 0x01;  MISO: 0x00
5.101039360000000,SPI,MOSI: 0x08;  MISO: 0x00
5.101381520000000,SPI,MOSI: 0x08;  MISO: 0x00
5.101461560000000,SPI,MOSI: 0xCF;  MISO: 0x00
5.101723880000000,SPI,MOSI: 0x08;  MISO: 0x00
5.101803920000000,SPI,MOSI: 0x70;  MISO: 0x00
5.102062680000000,SPI,MOSI: 0x08;  MISO: 0x00
5.102142700000000,SPI,MOSI: 0x03;  MISO: 0x00
5.102405740000000,SPI,MOSI: 0x08;  MISO: 0x00
5.102485760000000,SPI,MOSI: 0x00;  MISO: 0x00
5.102743800000000,SPI,MOSI: 0x08;  MISO: 0x00
5.102823820000000,SPI,MOSI: 0xBF;  MISO: 0x00
5.103084760000000,SPI,MOSI: 0x08;  MISO: 0x00
5.103164780000000,SPI,MOSI: 0xB9;  MISO: 0x00
5.103424180000000,SPI,MOSI: 0x08;  MISO: 0x00
5.103504200000000,SPI,MOSI: 0x7B;  MISO: 0x00
5.103763760000000,SPI,MOSI: 0x08;  MISO: 0x00
5.103843800000000,SPI,MOSI: 0xC7;  MISO: 0x00
5.104103260000000,SPI,MOSI: 0x08;  MISO: 0x00
5.104183280000000,SPI,MOSI: 0x73;  MISO: 0x00
5.104480260000000,SPI,MOSI: 0x08;  MISO: 0x00
5.104560280000000,SPI,MOSI: 0x58;  MISO: 0x00
