Time [s], Analyzer Name, Decoded Protocol Result
3.565708620000000,SPI,MOSI: 0x02;  MISO: 0x00
3.565716620000000,SPI,MOSI: 0x0F;  MISO: 0x00
3.565843840000000,SPI,MOSI: 0x54;  MISO: 0x00
3.565851840000000,SPI,MOSI: 0x8D;  MISO: 0x00
3.565922700000000,SPI,MOSI: 0x1F;  MISO: 0x00
3.565994880000000,SPI,MOSI: 0x5A;  MISO: 0x00
3.566002880000000,SPI,MOSI: 0x1E;  MISO: 0x00
3.566067860000000,SPI,MOSI: 0x58;  MISO: 0x00
3.566075860000000,SPI,MOSI: 0x00;  MISO: 0x00
3.566135980000000,SPI,MOSI: 0x2A;  MISO: 0x00
3.566143980000000,SPI,MOSI: 0x40;  MISO: 0x00
3.566203560000000,SPI,MOSI: 0x22;  MISO: 0x00
3.566211560000000,SPI,MOSI: 0x3D;  MISO: 0x00
3.566278960000000,SPI,MOSI: 0xA8;  MISO: 0x00
3.566286960000000,SPI,MOSI: 0x00;  MISO: 0x80
3.566355680000000,SPI,MOSI: 0xA8;  MISO: 0x00
3.566363680000000,SPI,MOSI: 0x00;  MISO: 0x80
3.566423480000000,SPI,MOSI: 0x28;  MISO: 0x00
3.566431480000000,SPI,MOSI: 0x83;  MISO: 0x00
3.566633240000000,SPI,MOSI: 0x02;  MISO: 0x00
3.566641240000000,SPI,MOSI: 0x0F;  MISO: 0x00
3.566710980000000,SPI,MOSI: 0x54;  MISO: 0x00
3.566718980000000,SPI,MOSI: 0x8D;  MISO: 0x00
3.566790860000000,SPI,MOSI: 0x56;  MISO: 0x00
3.566798860000000,SPI,MOSI: 0x3E;  MISO: 0x00
3.566861540000000,SPI,MOSI: 0x5A;  MISO: 0x00
3.566869540000000,SPI,MOSI: 0x1E;  MISO: 0x00
3.566927780000000,SPI,MOSI: 0x58;  MISO: 0x00
3.566935780000000,SPI,MOSI: 0x00;  MISO: 0x00
3.567126120000000,SPI,MOSI: 0x22;  MISO: 0x00
3.567134120000000,SPI,MOSI: 0x3D;  MISO: 0x00
3.567196740000000,SPI,MOSI: 0xA8;  MISO: 0x00
3.567204740000000,SPI,MOSI: 0x00;  MISO: 0x80
3.567274500000000,SPI,MOSI: 0x00;  MISO: 0x10
3.567335980000000,SPI,MOSI: 0x28;  MISO: 0x00
3.567343980000000,SPI,MOSI: 0x83;  MISO: 0x00
3.567415320000000,SPI,MOSI: 0x1A;  MISO: 0x00
3.567423320000000,SPI,MOSI: 0x07;  MISO: 0x00
3.567506920000000,SPI,MOSI: 0x04;  MISO: 0x00
3.567514920000000,SPI,MOSI: 0xF7;  MISO: 0x00
3.567577880000000,SPI,MOSI: 0x88;  MISO: 0x00
3.567585880000000,SPI,MOSI: 0x00;  MISO: 0x14
3.567650100000000,SPI,MOSI: 0x08;  MISO: 0x00
3.567658100000000,SPI,MOSI: 0x14;  MISO: 0x00
3.567724740000000,SPI,MOSI: 0x00;  MISO: 0x00
3.567785580000000,SPI,MOSI: 0x14;  MISO: 0x00
3.567793580000000,SPI,MOSI: 0x80;  MISO: 0x00
3.567853100000000,SPI,MOSI: 0x02;  MISO: 0x00
3.567861100000000,SPI,MOSI: 0x00;  MISO: 0x00
3.567936840000000,SPI,MOSI: 0x12;  MISO: 0x00
3.567944840000000,SPI,MOSI: 0x26;  MISO: 0x00
3.568013520000000,SPI,MOSI: 0x02;  MISO: 0x00
3.568021520000000,SPI,MOSI: 0x0C;  MISO: 0x00
3.568085280000000,SPI,MOSI: 0x9A;  MISO: 0x00
3.568093280000000,SPI,MOSI: 0x00;  MISO: 0x07
3.568223500000000,SPI,MOSI: 0x88;  MISO: 0x00
3.568231500000000,SPI,MOSI: 0x00;  MISO: 0x04
3.568296080000000,SPI,MOSI: 0x88;  MISO: 0x00
3.568304080000000,SPI,MOSI: 0x00;  MISO: 0x44
3.568367200000000,SPI,MOSI: 0x88;  MISO: 0x00
3.568375200000000,SPI,MOSI: 0x00;  MISO: 0x44
3.568436980000000,SPI,MOSI: 0x88;  MISO: 0x00
3.568444980000000,SPI,MOSI: 0x00;  MISO: 0x44
3.568506740000000,SPI,MOSI: 0x88;  MISO: 0x00
3.568514740000000,SPI,MOSI: 0x00;  MISO: 0x44
3.568577260000000,SPI,MOSI: 0x88;  MISO: 0x00
3.568585260000000,SPI,MOSI: 0x00;  MISO: 0x44
3.568647260000000,SPI,MOSI: 0x88;  MISO: 0x00
3.568655260000000,SPI,MOSI: 0x00;  MISO: 0x44
3.568718100000000,SPI,MOSI: 0x88;  MISO: 0x00
3.568726100000000,SPI,MOSI: 0x00;  MISO: 0x44
3.568787700000000,SPI,MOSI: 0x88;  MISO: 0x00
3.568795700000000,SPI,MOSI: 0x00;  MISO: 0x44
3.568858760000000,SPI,MOSI: 0x88;  MISO: 0x00
3.568866760000000,SPI,MOSI: 0x00;  MISO: 0x44
3.568928340000000,SPI,MOSI: 0x88;  MISO: 0x00
3.568936340000000,SPI,MOSI: 0x00;  MISO: 0x44
3.568998280000000,SPI,MOSI: 0x88;  MISO: 0x00
3.569006280000000,SPI,MOSI: 0x00;  MISO: 0x44
3.569067540000000,SPI,MOSI: 0x88;  MISO: 0x00
3.569075540000000,SPI,MOSI: 0x00;  MISO: 0x44
3.569138040000000,SPI,MOSI: 0x88;  MISO: 0x00
3.569146040000000,SPI,MOSI: 0x00;  MISO: 0x44
3.569209920000000,SPI,MOSI: 0x88;  MISO: 0x00
3.569217920000000,SPI,MOSI: 0x00;  MISO: 0x44
3.569279780000000,SPI,MOSI: 0x88;  MISO: 0x00
3.569287780000000,SPI,MOSI: 0x00;  MISO: 0x44
3.569349460000000,SPI,MOSI: 0x88;  MISO: 0x00
3.569357460000000,SPI,MOSI: 0x00;  MISO: 0x44
3.569419100000000,SPI,MOSI: 0x88;  MISO: 0x00
3.569427100000000,SPI,MOSI: 0x00;  MISO: 0x44
3.569489360000000,SPI,MOSI: 0x88;  MISO: 0x00
3.569497360000000,SPI,MOSI: 0x00;  MISO: 0x44
3.569559100000000,SPI,MOSI: 0x88;  MISO: 0x00
3.569567100000000,SPI,MOSI: 0x00;  MISO: 0x44
3.569628740000000,SPI,MOSI: 0x88;  MISO: 0x00
3.569636740000000,SPI,MOSI: 0x00;  MISO: 0x44
3.569698760000000,SPI,MOSI: 0x88;  MISO: 0x00
3.569706760000000,SPI,MOSI: 0x00;  MISO: 0x44
3.569769460000000,SPI,MOSI: 0x88;  MISO: 0x00
3.569777460000000,SPI,MOSI: 0x00;  MISO: 0x44
3.569840160000000,SPI,MOSI: 0x88;  MISO: 0x00
3.569848160000000,SPI,MOSI: 0x00;  MISO: 0x44
3.569910020000000,SPI,MOSI: 0x88;  MISO: 0x00
3.569918020000000,SPI,MOSI: 0x00;  MISO: 0x44
3.569985120000000,SPI,MOSI: 0x00;  MISO: 0x08
3.570049720000000,SPI,MOSI: 0x88;  MISO: 0x00
3.570057720000000,SPI,MOSI: 0x00;  MISO: 0x44
3.570120820000000,SPI,MOSI: 0x88;  MISO: 0x00
3.570128820000000,SPI,MOSI: 0x00;  MISO: 0x44
3.570191040000000,SPI,MOSI: 0x88;  MISO: 0x00
3.570199040000000,SPI,MOSI: 0x00;  MISO: 0x44
3.570261700000000,SPI,MOSI: 0x88;  MISO: 0x00
3.570269700000000,SPI,MOSI: 0x00;  MISO: 0x44
3.570331700000000,SPI,MOSI: 0x88;  MISO: 0x00
3.570339700000000,SPI,MOSI: 0x00;  MISO: 0x44
3.570401340000000,SPI,MOSI: 0x88;  MISO: 0x00
3.570409340000000,SPI,MOSI: 0x00;  MISO: 0x44
3.570471900000000,SPI,MOSI: 0x88;  MISO: 0x00
3.570479900000000,SPI,MOSI: 0x00;  MISO: 0x44
3.570544820000000,SPI,MOSI: 0x88;  MISO: 0x00
3.570552820000000,SPI,MOSI: 0x00;  MISO: 0x44
3.570614860000000,SPI,MOSI: 0x88;  MISO: 0x00
3.570622860000000,SPI,MOSI: 0x00;  MISO: 0x44
3.570684520000000,SPI,MOSI: 0x88;  MISO: 0x00
3.570692520000000,SPI,MOSI: 0x00;  MISO: 0x44
3.570754320000000,SPI,MOSI: 0x88;  MISO: 0x00
3.570762320000000,SPI,MOSI: 0x00;  MISO: 0x44
3.570825360000000,SPI,MOSI: 0x88;  MISO: 0x00
3.570833360000000,SPI,MOSI: 0x00;  MISO: 0x44
3.570895460000000,SPI,MOSI: 0x88;  MISO: 0x00
3.570903460000000,SPI,MOSI: 0x00;  MISO: 0x44
3.570965160000000,SPI,MOSI: 0x88;  MISO: 0x00
3.570973160000000,SPI,MOSI: 0x00;  MISO: 0x44
3.571034800000000,SPI,MOSI: 0x88;  MISO: 0x00
3.571042800000000,SPI,MOSI: 0x00;  MISO: 0x44
3.571110500000000,SPI,MOSI: 0x00;  MISO: 0x08
3.571175480000000,SPI,MOSI: 0x88;  MISO: 0x00
3.571183460000000,SPI,MOSI: 0x00;  MISO: 0x44
3.571245160000000,SPI,MOSI: 0x88;  MISO: 0x00
3.571253160000000,SPI,MOSI: 0x00;  MISO: 0x44
3.571316680000000,SPI,MOSI: 0x88;  MISO: 0x00
3.571324680000000,SPI,MOSI: 0x00;  MISO: 0x44
3.571386380000000,SPI,MOSI: 0x88;  MISO: 0x00
3.571394380000000,SPI,MOSI: 0x00;  MISO: 0x44
3.571456540000000,SPI,MOSI: 0x88;  MISO: 0x00
3.571464540000000,SPI,MOSI: 0x00;  MISO: 0x44
3.571526200000000,SPI,MOSI: 0x88;  MISO: 0x00
3.571534200000000,SPI,MOSI: 0x00;  MISO: 0x44
3.571595740000000,SPI,MOSI: 0x88;  MISO: 0x00
3.571603740000000,SPI,MOSI: 0x00;  MISO: 0x44
3.571665680000000,SPI,MOSI: 0x88;  MISO: 0x00
3.571673680000000,SPI,MOSI: 0x00;  MISO: 0x44
3.571736280000000,SPI,MOSI: 0x88;  MISO: 0x00
3.571744280000000,SPI,MOSI: 0x00;  MISO: 0x44
3.571906240000000,SPI,MOSI: 0x88;  MISO: 0x00
3.571914240000000,SPI,MOSI: 0x00;  MISO: 0x44
3.571993340000000,SPI,MOSI: 0x88;  MISO: 0x00
3.572001340000000,SPI,MOSI: 0x00;  MISO: 0x44
3.572066380000000,SPI,MOSI: 0x88;  MISO: 0x00
3.572074360000000,SPI,MOSI: 0x00;  MISO: 0x44
3.572137320000000,SPI,MOSI: 0x88;  MISO: 0x00
3.572145320000000,SPI,MOSI: 0x00;  MISO: 0x44
3.572214640000000,SPI,MOSI: 0x00;  MISO: 0x08
3.572279800000000,SPI,MOSI: 0x88;  MISO: 0x00
3.572287800000000,SPI,MOSI: 0x00;  MISO: 0x44
3.572351340000000,SPI,MOSI: 0x88;  MISO: 0x00
3.572359340000000,SPI,MOSI: 0x00;  MISO: 0x44
3.572421840000000,SPI,MOSI: 0x88;  MISO: 0x00
3.572429840000000,SPI,MOSI: 0x00;  MISO: 0x44
3.572491620000000,SPI,MOSI: 0x88;  MISO: 0x00
3.572499620000000,SPI,MOSI: 0x00;  MISO: 0x44
3.572562240000000,SPI,MOSI: 0x88;  MISO: 0x00
3.572570240000000,SPI,MOSI: 0x00;  MISO: 0x44
3.572632340000000,SPI,MOSI: 0x88;  MISO: 0x00
3.572640340000000,SPI,MOSI: 0x00;  MISO: 0x44
3.572702300000000,SPI,MOSI: 0x88;  MISO: 0x00
3.572710300000000,SPI,MOSI: 0x00;  MISO: 0x44
3.572771660000000,SPI,MOSI: 0x88;  MISO: 0x00
3.572779660000000,SPI,MOSI: 0x00;  MISO: 0x44
3.572842800000000,SPI,MOSI: 0x88;  MISO: 0x00
3.572850800000000,SPI,MOSI: 0x00;  MISO: 0x44
3.572913220000000,SPI,MOSI: 0x88;  MISO: 0x00
3.572921220000000,SPI,MOSI: 0x00;  MISO: 0x44
3.572982780000000,SPI,MOSI: 0x88;  MISO: 0x00
3.572990780000000,SPI,MOSI: 0x00;  MISO: 0x44
3.573052940000000,SPI,MOSI: 0x88;  MISO: 0x00
3.573060940000000,SPI,MOSI: 0x00;  MISO: 0x44
3.573122740000000,SPI,MOSI: 0x88;  MISO: 0x00
3.573130740000000,SPI,MOSI: 0x00;  MISO: 0x44
3.573193840000000,SPI,MOSI: 0x88;  MISO: 0x00
3.573201840000000,SPI,MOSI: 0x00;  MISO: 0x44
3.573263900000000,SPI,MOSI: 0x88;  MISO: 0x00
3.573271900000000,SPI,MOSI: 0x00;  MISO: 0x44
3.573333320000000,SPI,MOSI: 0x88;  MISO: 0x00
3.573341320000000,SPI,MOSI: 0x00;  MISO: 0x44
3.573404240000000,SPI,MOSI: 0x88;  MISO: 0x00
3.573412240000000,SPI,MOSI: 0x00;  MISO: 0x44
3.573474860000000,SPI,MOSI: 0x88;  MISO: 0x00
3.573482860000000,SPI,MOSI: 0x00;  MISO: 0x44
3.573544540000000,SPI,MOSI: 0x88;  MISO: 0x00
3.573552540000000,SPI,MOSI: 0x00;  MISO: 0x44
3.573614440000000,SPI,MOSI: 0x88;  MISO: 0x00
3.573622440000000,SPI,MOSI: 0x00;  MISO: 0x44
3.573686800000000,SPI,MOSI: 0x88;  MISO: 0x00
3.573694800000000,SPI,MOSI: 0x00;  MISO: 0x44
3.573756380000000,SPI,MOSI: 0x88;  MISO: 0x00
3.573764380000000,SPI,MOSI: 0x00;  MISO: 0x44
3.573826880000000,SPI,MOSI: 0x88;  MISO: 0x00
3.573834880000000,SPI,MOSI: 0x00;  MISO: 0x44
3.573896580000000,SPI,MOSI: 0x88;  MISO: 0x00
3.573904580000000,SPI,MOSI: 0x00;  MISO: 0x44
3.573966740000000,SPI,MOSI: 0x88;  MISO: 0x00
3.573974740000000,SPI,MOSI: 0x00;  MISO: 0x44
3.574036360000000,SPI,MOSI: 0x88;  MISO: 0x00
3.574044360000000,SPI,MOSI: 0x00;  MISO: 0x44
3.574105780000000,SPI,MOSI: 0x88;  MISO: 0x00
3.574113780000000,SPI,MOSI: 0x00;  MISO: 0x44
3.574176780000000,SPI,MOSI: 0x88;  MISO: 0x00
3.574184780000000,SPI,MOSI: 0x00;  MISO: 0x44
3.574246560000000,SPI,MOSI: 0x88;  MISO: 0x00
3.574254560000000,SPI,MOSI: 0x00;  MISO: 0x44
3.574316220000000,SPI,MOSI: 0x88;  MISO: 0x00
3.574324220000000,SPI,MOSI: 0x00;  MISO: 0x44
3.574386120000000,SPI,MOSI: 0x88;  MISO: 0x00
3.574394120000000,SPI,MOSI: 0x00;  MISO: 0x44
3.574457880000000,SPI,MOSI: 0x88;  MISO: 0x00
3.574465880000000,SPI,MOSI: 0x00;  MISO: 0x44
3.574527460000000,SPI,MOSI: 0x88;  MISO: 0x00
3.574535440000000,SPI,MOSI: 0x00;  MISO: 0x44
3.574597100000000,SPI,MOSI: 0x88;  MISO: 0x00
3.574605100000000,SPI,MOSI: 0x00;  MISO: 0x44
3.574666460000000,SPI,MOSI: 0x88;  MISO: 0x00
3.574674460000000,SPI,MOSI: 0x00;  MISO: 0x44
3.574784600000000,SPI,MOSI: 0x88;  MISO: 0x00
3.574792600000000,SPI,MOSI: 0x00;  MISO: 0x44
3.574860140000000,SPI,MOSI: 0x88;  MISO: 0x00
3.574868140000000,SPI,MOSI: 0x00;  MISO: 0x44
3.574931440000000,SPI,MOSI: 0x88;  MISO: 0x00
3.574939440000000,SPI,MOSI: 0x00;  MISO: 0x44
3.575001740000000,SPI,MOSI: 0x88;  MISO: 0x00
3.575009740000000,SPI,MOSI: 0x00;  MISO: 0x44
3.575074960000000,SPI,MOSI: 0x88;  MISO: 0x00
3.575082960000000,SPI,MOSI: 0x00;  MISO: 0x44
3.575146040000000,SPI,MOSI: 0x88;  MISO: 0x00
3.575154040000000,SPI,MOSI: 0x00;  MISO: 0x44
3.575215800000000,SPI,MOSI: 0x88;  MISO: 0x00
3.575223800000000,SPI,MOSI: 0x00;  MISO: 0x44
3.575285620000000,SPI,MOSI: 0x88;  MISO: 0x00
3.575293620000000,SPI,MOSI: 0x00;  MISO: 0x44
3.575355340000000,SPI,MOSI: 0x88;  MISO: 0x00
3.575363340000000,SPI,MOSI: 0x00;  MISO: 0x44
3.575425120000000,SPI,MOSI: 0x88;  MISO: 0x00
3.575433120000000,SPI,MOSI: 0x00;  MISO: 0x44
3.575496820000000,SPI,MOSI: 0x88;  MISO: 0x00
3.575504820000000,SPI,MOSI: 0x00;  MISO: 0x44
3.575567640000000,SPI,MOSI: 0x88;  MISO: 0x00
3.575575640000000,SPI,MOSI: 0x00;  MISO: 0x44
3.575637380000000,SPI,MOSI: 0x88;  MISO: 0x00
3.575645380000000,SPI,MOSI: 0x00;  MISO: 0x44
3.575706960000000,SPI,MOSI: 0x88;  MISO: 0x00
3.575714960000000,SPI,MOSI: 0x00;  MISO: 0x44
3.575776380000000,SPI,MOSI: 0x88;  MISO: 0x00
3.575784380000000,SPI,MOSI: 0x00;  MISO: 0x44
3.575851760000000,SPI,MOSI: 0x00;  MISO: 0x08
3.575916460000000,SPI,MOSI: 0x88;  MISO: 0x00
3.575924460000000,SPI,MOSI: 0x00;  MISO: 0x44
3.575986740000000,SPI,MOSI: 0x88;  MISO: 0x00
3.575994740000000,SPI,MOSI: 0x00;  MISO: 0x44
3.576057000000000,SPI,MOSI: 0x88;  MISO: 0x00
3.576065000000000,SPI,MOSI: 0x00;  MISO: 0x44
3.576127900000000,SPI,MOSI: 0x88;  MISO: 0x00
3.576135900000000,SPI,MOSI: 0x00;  MISO: 0x44
3.576198040000000,SPI,MOSI: 0x88;  MISO: 0x00
3.576206040000000,SPI,MOSI: 0x00;  MISO: 0x44
3.576267980000000,SPI,MOSI: 0x88;  MISO: 0x00
3.576275980000000,SPI,MOSI: 0x00;  MISO: 0x44
3.576337680000000,SPI,MOSI: 0x88;  MISO: 0x00
3.576345680000000,SPI,MOSI: 0x00;  MISO: 0x44
3.576407540000000,SPI,MOSI: 0x88;  MISO: 0x00
3.576415540000000,SPI,MOSI: 0x00;  MISO: 0x44
3.576477740000000,SPI,MOSI: 0x88;  MISO: 0x00
3.576485740000000,SPI,MOSI: 0x00;  MISO: 0x44
3.576548940000000,SPI,MOSI: 0x88;  MISO: 0x00
3.576556920000000,SPI,MOSI: 0x00;  MISO: 0x44
3.576619360000000,SPI,MOSI: 0x88;  MISO: 0x00
3.576627360000000,SPI,MOSI: 0x00;  MISO: 0x44
3.576689200000000,SPI,MOSI: 0x88;  MISO: 0x00
3.576697200000000,SPI,MOSI: 0x00;  MISO: 0x44
3.576759680000000,SPI,MOSI: 0x88;  MISO: 0x00
3.576767680000000,SPI,MOSI: 0x00;  MISO: 0x44
3.576829420000000,SPI,MOSI: 0x88;  MISO: 0x00
3.576837420000000,SPI,MOSI: 0x00;  MISO: 0x44
3.576899580000000,SPI,MOSI: 0x88;  MISO: 0x00
3.576907580000000,SPI,MOSI: 0x00;  MISO: 0x44
3.576969200000000,SPI,MOSI: 0x88;  MISO: 0x00
3.576977200000000,SPI,MOSI: 0x00;  MISO: 0x44
3.577039020000000,SPI,MOSI: 0x88;  MISO: 0x00
3.577047020000000,SPI,MOSI: 0x00;  MISO: 0x44
3.577110060000000,SPI,MOSI: 0x88;  MISO: 0x00
3.577118060000000,SPI,MOSI: 0x00;  MISO: 0x44
3.577179660000000,SPI,MOSI: 0x88;  MISO: 0x00
3.577187660000000,SPI,MOSI: 0x00;  MISO: 0x44
3.577249540000000,SPI,MOSI: 0x88;  MISO: 0x00
3.577257540000000,SPI,MOSI: 0x00;  MISO: 0x44
3.577319260000000,SPI,MOSI: 0x88;  MISO: 0x00
3.577327260000000,SPI,MOSI: 0x00;  MISO: 0x44
3.577390140000000,SPI,MOSI: 0x88;  MISO: 0x00
3.577398140000000,SPI,MOSI: 0x00;  MISO: 0x44
3.577459940000000,SPI,MOSI: 0x88;  MISO: 0x00
3.577467940000000,SPI,MOSI: 0x00;  MISO: 0x44
3.577529340000000,SPI,MOSI: 0x88;  MISO: 0x00
3.577537340000000,SPI,MOSI: 0x00;  MISO: 0x44
3.577599740000000,SPI,MOSI: 0x88;  MISO: 0x00
3.577607740000000,SPI,MOSI: 0x00;  MISO: 0x44
3.577669320000000,SPI,MOSI: 0x88;  MISO: 0x00
3.577677300000000,SPI,MOSI: 0x00;  MISO: 0x44
3.577739840000000,SPI,MOSI: 0x88;  MISO: 0x00
3.577747840000000,SPI,MOSI: 0x00;  MISO: 0x44
3.577809460000000,SPI,MOSI: 0x88;  MISO: 0x00
3.577817460000000,SPI,MOSI: 0x00;  MISO: 0x44
3.577879340000000,SPI,MOSI: 0x88;  MISO: 0x00
3.577887340000000,SPI,MOSI: 0x00;  MISO: 0x44
3.577948960000000,SPI,MOSI: 0x88;  MISO: 0x00
3.577956960000000,SPI,MOSI: 0x00;  MISO: 0x44
3.578018480000000,SPI,MOSI: 0x88;  MISO: 0x00
3.578026480000000,SPI,MOSI: 0x00;  MISO: 0x44
3.578089440000000,SPI,MOSI: 0x88;  MISO: 0x00
3.578097440000000,SPI,MOSI: 0x00;  MISO: 0x44
3.578159740000000,SPI,MOSI: 0x88;  MISO: 0x00
3.578167740000000,SPI,MOSI: 0x00;  MISO: 0x44
3.578229340000000,SPI,MOSI: 0x88;  MISO: 0x00
3.578237340000000,SPI,MOSI: 0x00;  MISO: 0x44
3.578299020000000,SPI,MOSI: 0x88;  MISO: 0x00
3.578307020000000,SPI,MOSI: 0x00;  MISO: 0x44
3.578369660000000,SPI,MOSI: 0x88;  MISO: 0x00
3.578377660000000,SPI,MOSI: 0x00;  MISO: 0x44
3.578439480000000,SPI,MOSI: 0x88;  MISO: 0x00
3.578447480000000,SPI,MOSI: 0x00;  MISO: 0x44
3.578509280000000,SPI,MOSI: 0x88;  MISO: 0x00
3.578517280000000,SPI,MOSI: 0x00;  MISO: 0x44
3.578578660000000,SPI,MOSI: 0x88;  MISO: 0x00
3.578586660000000,SPI,MOSI: 0x00;  MISO: 0x44
3.578648360000000,SPI,MOSI: 0x88;  MISO: 0x00
3.578656360000000,SPI,MOSI: 0x00;  MISO: 0x44
3.578719620000000,SPI,MOSI: 0x88;  MISO: 0x00
3.578727620000000,SPI,MOSI: 0x00;  MISO: 0x44
3.578789500000000,SPI,MOSI: 0x88;  MISO: 0x00
3.578797480000000,SPI,MOSI: 0x00;  MISO: 0x44
3.578859540000000,SPI,MOSI: 0x88;  MISO: 0x00
3.578867540000000,SPI,MOSI: 0x00;  MISO: 0x44
3.578929520000000,SPI,MOSI: 0x88;  MISO: 0x00
3.578937520000000,SPI,MOSI: 0x00;  MISO: 0x44
3.579000040000000,SPI,MOSI: 0x88;  MISO: 0x00
3.579008040000000,SPI,MOSI: 0x00;  MISO: 0x44
3.579070020000000,SPI,MOSI: 0x88;  MISO: 0x00
3.579078020000000,SPI,MOSI: 0x00;  MISO: 0x44
3.579139940000000,SPI,MOSI: 0x88;  MISO: 0x00
3.579147940000000,SPI,MOSI: 0x00;  MISO: 0x44
3.579210120000000,SPI,MOSI: 0x88;  MISO: 0x00
3.579218120000000,SPI,MOSI: 0x00;  MISO: 0x44
3.579279840000000,SPI,MOSI: 0x88;  MISO: 0x00
3.579287840000000,SPI,MOSI: 0x00;  MISO: 0x44
3.579350360000000,SPI,MOSI: 0x88;  MISO: 0x00
3.579358360000000,SPI,MOSI: 0x00;  MISO: 0x44
3.579420200000000,SPI,MOSI: 0x88;  MISO: 0x00
3.579428200000000,SPI,MOSI: 0x00;  MISO: 0x44
3.579491280000000,SPI,MOSI: 0x88;  MISO: 0x00
3.579499280000000,SPI,MOSI: 0x00;  MISO: 0x44
3.579560960000000,SPI,MOSI: 0x88;  MISO: 0x00
3.579568960000000,SPI,MOSI: 0x00;  MISO: 0x44
3.579630720000000,SPI,MOSI: 0x88;  MISO: 0x00
3.579638720000000,SPI,MOSI: 0x00;  MISO: 0x44
3.579701180000000,SPI,MOSI: 0x88;  MISO: 0x00
3.579709180000000,SPI,MOSI: 0x00;  MISO: 0x44
3.579771000000000,SPI,MOSI: 0x88;  MISO: 0x00
3.579779000000000,SPI,MOSI: 0x00;  MISO: 0x44
3.579841600000000,SPI,MOSI: 0x88;  MISO: 0x00
3.579849600000000,SPI,MOSI: 0x00;  MISO: 0x44
3.579911480000000,SPI,MOSI: 0x88;  MISO: 0x00
3.579919460000000,SPI,MOSI: 0x00;  MISO: 0x44
3.579982440000000,SPI,MOSI: 0x88;  MISO: 0x00
3.579990440000000,SPI,MOSI: 0x00;  MISO: 0x44
3.580052480000000,SPI,MOSI: 0x88;  MISO: 0x00
3.580060480000000,SPI,MOSI: 0x00;  MISO: 0x44
3.580122360000000,SPI,MOSI: 0x88;  MISO: 0x00
3.580130360000000,SPI,MOSI: 0x00;  MISO: 0x44
3.580192500000000,SPI,MOSI: 0x88;  MISO: 0x00
3.580200500000000,SPI,MOSI: 0x00;  MISO: 0x44
3.580262200000000,SPI,MOSI: 0x88;  MISO: 0x00
3.580270200000000,SPI,MOSI: 0x00;  MISO: 0x44
3.580332500000000,SPI,MOSI: 0x88;  MISO: 0x00
3.580340500000000,SPI,MOSI: 0x00;  MISO: 0x44
3.580402420000000,SPI,MOSI: 0x88;  MISO: 0x00
3.580410420000000,SPI,MOSI: 0x00;  MISO: 0x44
3.580472040000000,SPI,MOSI: 0x88;  MISO: 0x00
3.580480040000000,SPI,MOSI: 0x00;  MISO: 0x44
3.580541600000000,SPI,MOSI: 0x88;  MISO: 0x00
3.580549600000000,SPI,MOSI: 0x00;  MISO: 0x44
3.580611980000000,SPI,MOSI: 0x88;  MISO: 0x00
3.580619980000000,SPI,MOSI: 0x00;  MISO: 0x44
3.580681780000000,SPI,MOSI: 0x88;  MISO: 0x00
3.580689780000000,SPI,MOSI: 0x00;  MISO: 0x44
3.580752420000000,SPI,MOSI: 0x88;  MISO: 0x00
3.580760420000000,SPI,MOSI: 0x00;  MISO: 0x44
3.580822060000000,SPI,MOSI: 0x88;  MISO: 0x00
3.580830060000000,SPI,MOSI: 0x00;  MISO: 0x44
3.580892580000000,SPI,MOSI: 0x88;  MISO: 0x00
3.580900580000000,SPI,MOSI: 0x00;  MISO: 0x44
3.580963460000000,SPI,MOSI: 0x88;  MISO: 0x00
3.580971460000000,SPI,MOSI: 0x00;  MISO: 0x44
3.581033380000000,SPI,MOSI: 0x88;  MISO: 0x00
3.581041380000000,SPI,MOSI: 0x00;  MISO: 0x44
3.581102920000000,SPI,MOSI: 0x88;  MISO: 0x00
3.581110920000000,SPI,MOSI: 0x00;  MISO: 0x44
3.581172540000000,SPI,MOSI: 0x88;  MISO: 0x00
3.581180540000000,SPI,MOSI: 0x00;  MISO: 0x44
3.581242420000000,SPI,MOSI: 0x88;  MISO: 0x00
3.581250420000000,SPI,MOSI: 0x00;  MISO: 0x44
3.581313440000000,SPI,MOSI: 0x88;  MISO: 0x00
3.581321440000000,SPI,MOSI: 0x00;  MISO: 0x44
3.581383420000000,SPI,MOSI: 0x88;  MISO: 0x00
3.581391420000000,SPI,MOSI: 0x00;  MISO: 0x44
3.581453380000000,SPI,MOSI: 0x88;  MISO: 0x00
3.581461380000000,SPI,MOSI: 0x00;  MISO: 0x44
3.581523520000000,SPI,MOSI: 0x88;  MISO: 0x00
3.581531520000000,SPI,MOSI: 0x00;  MISO: 0x44
3.581599380000000,SPI,MOSI: 0x00;  MISO: 0x08
3.581664240000000,SPI,MOSI: 0x88;  MISO: 0x00
3.581672240000000,SPI,MOSI: 0x00;  MISO: 0x44
3.581733880000000,SPI,MOSI: 0x88;  MISO: 0x00
3.581741880000000,SPI,MOSI: 0x00;  MISO: 0x44
3.581806160000000,SPI,MOSI: 0x88;  MISO: 0x00
3.581814160000000,SPI,MOSI: 0x00;  MISO: 0x44
3.582199720000000,SPI,MOSI: 0x88;  MISO: 0x00
3.582207720000000,SPI,MOSI: 0x00;  MISO: 0x44
3.582288800000000,SPI,MOSI: 0x88;  MISO: 0x00
3.582296800000000,SPI,MOSI: 0x00;  MISO: 0x44
3.582361500000000,SPI,MOSI: 0x88;  MISO: 0x00
3.582369500000000,SPI,MOSI: 0x00;  MISO: 0x44
3.582431880000000,SPI,MOSI: 0x88;  MISO: 0x00
3.582439880000000,SPI,MOSI: 0x00;  MISO: 0x44
3.582502800000000,SPI,MOSI: 0x88;  MISO: 0x00
3.582510800000000,SPI,MOSI: 0x00;  MISO: 0x44
3.582576940000000,SPI,MOSI: 0x88;  MISO: 0x00
3.582584940000000,SPI,MOSI: 0x00;  MISO: 0x44
3.582646880000000,SPI,MOSI: 0x88;  MISO: 0x00
3.582654880000000,SPI,MOSI: 0x00;  MISO: 0x44
3.582716920000000,SPI,MOSI: 0x88;  MISO: 0x00
3.582724920000000,SPI,MOSI: 0x00;  MISO: 0x44
3.582786760000000,SPI,MOSI: 0x88;  MISO: 0x00
3.582794760000000,SPI,MOSI: 0x00;  MISO: 0x44
3.582858460000000,SPI,MOSI: 0x88;  MISO: 0x00
3.582866460000000,SPI,MOSI: 0x00;  MISO: 0x44
3.582929220000000,SPI,MOSI: 0x88;  MISO: 0x00
3.582937220000000,SPI,MOSI: 0x00;  MISO: 0x44
3.582999220000000,SPI,MOSI: 0x88;  MISO: 0x00
3.583007220000000,SPI,MOSI: 0x00;  MISO: 0x44
3.583069260000000,SPI,MOSI: 0x88;  MISO: 0x00
3.583077260000000,SPI,MOSI: 0x00;  MISO: 0x44
3.583138680000000,SPI,MOSI: 0x88;  MISO: 0x00
3.583146680000000,SPI,MOSI: 0x00;  MISO: 0x44
3.583208680000000,SPI,MOSI: 0x88;  MISO: 0x00
3.583216680000000,SPI,MOSI: 0x00;  MISO: 0x44
3.583280320000000,SPI,MOSI: 0x88;  MISO: 0x00
3.583288320000000,SPI,MOSI: 0x00;  MISO: 0x45
3.583351000000000,SPI,MOSI: 0x88;  MISO: 0x00
3.583359000000000,SPI,MOSI: 0x00;  MISO: 0x45
3.583421100000000,SPI,MOSI: 0x88;  MISO: 0x00
3.583429100000000,SPI,MOSI: 0x00;  MISO: 0x45
3.583491020000000,SPI,MOSI: 0x88;  MISO: 0x00
3.583499000000000,SPI,MOSI: 0x00;  MISO: 0x45
3.583561540000000,SPI,MOSI: 0x88;  MISO: 0x00
3.583569540000000,SPI,MOSI: 0x00;  MISO: 0x45
3.583631840000000,SPI,MOSI: 0x88;  MISO: 0x00
3.583639840000000,SPI,MOSI: 0x00;  MISO: 0x45
3.583701880000000,SPI,MOSI: 0x88;  MISO: 0x00
3.583709880000000,SPI,MOSI: 0x00;  MISO: 0x45
3.583772180000000,SPI,MOSI: 0x88;  MISO: 0x00
3.583780180000000,SPI,MOSI: 0x00;  MISO: 0x45
3.583841660000000,SPI,MOSI: 0x88;  MISO: 0x00
3.583849660000000,SPI,MOSI: 0x00;  MISO: 0x45
3.583913360000000,SPI,MOSI: 0x88;  MISO: 0x00
3.583921360000000,SPI,MOSI: 0x00;  MISO: 0x45
3.583983060000000,SPI,MOSI: 0x88;  MISO: 0x00
3.583991060000000,SPI,MOSI: 0x00;  MISO: 0x45
3.584053660000000,SPI,MOSI: 0x88;  MISO: 0x00
3.584061660000000,SPI,MOSI: 0x00;  MISO: 0x45
3.584128940000000,SPI,MOSI: 0x00;  MISO: 0x08
3.584194140000000,SPI,MOSI: 0x88;  MISO: 0x00
3.584202140000000,SPI,MOSI: 0x00;  MISO: 0x45
3.584274280000000,SPI,MOSI: 0x00;  MISO: 0x08
3.584339160000000,SPI,MOSI: 0x88;  MISO: 0x00
3.584347160000000,SPI,MOSI: 0x00;  MISO: 0x45
3.584409020000000,SPI,MOSI: 0x88;  MISO: 0x00
3.584417020000000,SPI,MOSI: 0x00;  MISO: 0x45
3.584479480000000,SPI,MOSI: 0x88;  MISO: 0x00
3.584487480000000,SPI,MOSI: 0x00;  MISO: 0x45
3.584549860000000,SPI,MOSI: 0x88;  MISO: 0x00
3.584557860000000,SPI,MOSI: 0x00;  MISO: 0x45
3.584620100000000,SPI,MOSI: 0x88;  MISO: 0x00
3.584628080000000,SPI,MOSI: 0x00;  MISO: 0x45
3.584690460000000,SPI,MOSI: 0x88;  MISO: 0x00
3.584698460000000,SPI,MOSI: 0x00;  MISO: 0x45
3.584760180000000,SPI,MOSI: 0x88;  MISO: 0x00
3.584768180000000,SPI,MOSI: 0x00;  MISO: 0x45
3.584831440000000,SPI,MOSI: 0x88;  MISO: 0x00
3.584839420000000,SPI,MOSI: 0x00;  MISO: 0x45
3.584901220000000,SPI,MOSI: 0x88;  MISO: 0x00
3.584909220000000,SPI,MOSI: 0x00;  MISO: 0x45
3.584972040000000,SPI,MOSI: 0x88;  MISO: 0x00
3.584980040000000,SPI,MOSI: 0x00;  MISO: 0x45
3.585041600000000,SPI,MOSI: 0x88;  MISO: 0x00
3.585049600000000,SPI,MOSI: 0x00;  MISO: 0x45
3.585111620000000,SPI,MOSI: 0x88;  MISO: 0x00
3.585119620000000,SPI,MOSI: 0x00;  MISO: 0x45
3.585182480000000,SPI,MOSI: 0x88;  MISO: 0x00
3.585190480000000,SPI,MOSI: 0x00;  MISO: 0x45
3.585252680000000,SPI,MOSI: 0x88;  MISO: 0x00
3.585260680000000,SPI,MOSI: 0x00;  MISO: 0x45
3.585322360000000,SPI,MOSI: 0x88;  MISO: 0x00
3.585330360000000,SPI,MOSI: 0x00;  MISO: 0x45
3.585391980000000,SPI,MOSI: 0x88;  MISO: 0x00
3.585399980000000,SPI,MOSI: 0x00;  MISO: 0x45
3.585461640000000,SPI,MOSI: 0x88;  MISO: 0x00
3.585469640000000,SPI,MOSI: 0x00;  MISO: 0x45
3.585533620000000,SPI,MOSI: 0x88;  MISO: 0x00
3.585541620000000,SPI,MOSI: 0x00;  MISO: 0x45
3.585603720000000,SPI,MOSI: 0x88;  MISO: 0x00
3.585611720000000,SPI,MOSI: 0x00;  MISO: 0x45
3.585673300000000,SPI,MOSI: 0x88;  MISO: 0x00
3.585681300000000,SPI,MOSI: 0x00;  MISO: 0x45
3.585742920000000,SPI,MOSI: 0x88;  MISO: 0x00
3.585750920000000,SPI,MOSI: 0x00;  MISO: 0x45
3.585813740000000,SPI,MOSI: 0x88;  MISO: 0x00
3.585821740000000,SPI,MOSI: 0x00;  MISO: 0x45
3.585888320000000,SPI,MOSI: 0x00;  MISO: 0x08
3.585952800000000,SPI,MOSI: 0x88;  MISO: 0x00
3.585960800000000,SPI,MOSI: 0x00;  MISO: 0x45
3.586023480000000,SPI,MOSI: 0x88;  MISO: 0x00
3.586031480000000,SPI,MOSI: 0x00;  MISO: 0x45
3.586093180000000,SPI,MOSI: 0x88;  MISO: 0x00
