Time [s], Analyzer Name, Decoded Protocol Result
5.016211020000000,SPI,MOSI: 0x02;  MISO: 0x00
5.016291060000000,SPI,MOSI: 0x0F;  MISO: 0x00
5.016553300000000,SPI,MOSI: 0xD4;  MISO: 0x00
5.016633340000000,SPI,MOSI: 0x8D;  MISO: 0x00
5.016873760000000,SPI,MOSI: 0xD6;  MISO: 0x00
5.016953780000000,SPI,MOSI: 0x3E;  MISO: 0x00
5.017338820000000,SPI,MOSI: 0xDA;  MISO: 0x00
5.017418860000000,SPI,MOSI: 0x1E;  MISO: 0x00
5.017661900000000,SPI,MOSI: 0xD8;  MISO: 0x00
5.017741920000000,SPI,MOSI: 0x00;  MISO: 0x00
5.017979320000000,SPI,MOSI: 0x2A;  MISO: 0x00
5.018059340000000,SPI,MOSI: 0x40;  MISO: 0x00
5.018297740000000,SPI,MOSI: 0x22;  MISO: 0x00
5.018377760000000,SPI,MOSI: 0x3D;  MISO: 0x00
5.018629520000000,SPI,MOSI: 0x28;  MISO: 0x00
5.018709560000000,SPI,MOSI: 0xEB;  MISO: 0x00
5.019005980000000,SPI,MOSI: 0x43;  MISO: 0x00
5.019308380000000,SPI,MOSI: 0x28;  MISO: 0x00
5.019388420000000,SPI,MOSI: 0x03;  MISO: 0x00
5.030200280000000,SPI,MOSI: 0x01;  MISO: 0x00
5.030280300000000,SPI,MOSI: 0x57;  MISO: 0x00
5.030360340000000,SPI,MOSI: 0x69;  MISO: 0x00
5.030440360000000,SPI,MOSI: 0x00;  MISO: 0x00
5.031576140000000,SPI,MOSI: 0x40;  MISO: 0x00
5.031898320000000,SPI,MOSI: 0x04;  MISO: 0x00
5.031978340000000,SPI,MOSI: 0xF7;  MISO: 0x00
5.032260920000000,SPI,MOSI: 0x08;  MISO: 0x00
5.032340960000000,SPI,MOSI: 0xDF;  MISO: 0x00
5.032828960000000,SPI,MOSI: 0x08;  MISO: 0x00
5.032908980000000,SPI,MOSI: 0x00;  MISO: 0x00
5.033160860000000,SPI,MOSI: 0x14;  MISO: 0x00
5.033240900000000,SPI,MOSI: 0xBF;  MISO: 0x00
5.033487620000000,SPI,MOSI: 0x14;  MISO: 0x00
5.033567640000000,SPI,MOSI: 0x80;  MISO: 0x00
5.033815900000000,SPI,MOSI: 0x02;  MISO: 0x00
5.033895920000000,SPI,MOSI: 0x00;  MISO: 0x00
5.034149840000000,SPI,MOSI: 0x12;  MISO: 0x00
5.034229860000000,SPI,MOSI: 0x26;  MISO: 0x00
5.034773400000000,SPI,MOSI: 0x02;  MISO: 0x00
5.034853420000000,SPI,MOSI: 0x0C;  MISO: 0x00
5.035110120000000,SPI,MOSI: 0x1A;  MISO: 0x00
5.035190140000000,SPI,MOSI: 0x81;  MISO: 0x00
5.035439480000000,SPI,MOSI: 0x1A;  MISO: 0x00
5.035519500000000,SPI,MOSI: 0x80;  MISO: 0x00
5.035766200000000,SPI,MOSI: 0x08;  MISO: 0x00
5.035846240000000,SPI,MOSI: 0xF0;  MISO: 0x00
5.036107720000000,SPI,MOSI: 0x08;  MISO: 0x00
5.036187740000000,SPI,MOSI: 0x79;  MISO: 0x00
5.036449700000000,SPI,MOSI: 0x08;  MISO: 0x00
5.036529740000000,SPI,MOSI: 0xAB;  MISO: 0x00
5.036789540000000,SPI,MOSI: 0x08;  MISO: 0x00
5.036869560000000,SPI,MOSI: 0x71;  MISO: 0x00
5.037129660000000,SPI,MOSI: 0x08;  MISO: 0x00
5.037209700000000,SPI,MOSI: 0xB9;  MISO: 0x00
5.037469920000000,SPI,MOSI: 0x08;  MISO: 0x00
5.037549940000000,SPI,MOSI: 0xA8;  MISO: 0x00
5.037811480000000,SPI,MOSI: 0x88;  MISO: 0x00
5.037891520000000,SPI,MOSI: 0x3C;  MISO: 0x00
5.038151520000000,SPI,MOSI: 0x08;  MISO: 0x00
5.038231540000000,SPI,MOSI: 0x28;  MISO: 0x00
5.038491780000000,SPI,MOSI: 0x88;  MISO: 0x00
5.038571820000000,SPI,MOSI: 0xD9;  MISO: 0x00
5.038831820000000,SPI,MOSI: 0x08;  MISO: 0x00
5.038911840000000,SPI,MOSI: 0x45;  MISO: 0x00
5.039174160000000,SPI,MOSI: 0x08;  MISO: 0x00
5.039254180000000,SPI,MOSI: 0x77;  MISO: 0x00
5.039513020000000,SPI,MOSI: 0x08;  MISO: 0x00
5.039593040000000,SPI,MOSI: 0xF3;  MISO: 0x00
5.039852800000000,SPI,MOSI: 0x08;  MISO: 0x00
5.039932820000000,SPI,MOSI: 0xB0;  MISO: 0x00
5.040193140000000,SPI,MOSI: 0x88;  MISO: 0x00
5.040533580000000,SPI,MOSI: 0x08;  MISO: 0x00
5.040613620000000,SPI,MOSI: 0x21;  MISO: 0x00
5.040871940000000,SPI,MOSI: 0x88;  MISO: 0x00
5.040951980000000,SPI,MOSI: 0x2A;  MISO: 0x00
5.041213420000000,SPI,MOSI: 0x08;  MISO: 0x00
5.041293460000000,SPI,MOSI: 0xC9;  MISO: 0x00
5.041554800000000,SPI,MOSI: 0x08;  MISO: 0x00
5.041634820000000,SPI,MOSI: 0x03;  MISO: 0x00
5.041893100000000,SPI,MOSI: 0x08;  MISO: 0x00
5.041973120000000,SPI,MOSI: 0xD8;  MISO: 0x00
5.042233060000000,SPI,MOSI: 0x08;  MISO: 0x00
5.042313080000000,SPI,MOSI: 0x4E;  MISO: 0x00
5.042624460000000,SPI,MOSI: 0x1E;  MISO: 0x00
5.042913760000000,SPI,MOSI: 0x08;  MISO: 0x00
5.042993780000000,SPI,MOSI: 0xC2;  MISO: 0x00
5.043253380000000,SPI,MOSI: 0x08;  MISO: 0x00
5.043333400000000,SPI,MOSI: 0x68;  MISO: 0x00
5.043593760000000,SPI,MOSI: 0x08;  MISO: 0x00
5.043673800000000,SPI,MOSI: 0x63;  MISO: 0x00
5.043934140000000,SPI,MOSI: 0x08;  MISO: 0x00
5.044014160000000,SPI,MOSI: 0xC4;  MISO: 0x00
5.044355840000000,SPI,MOSI: 0x88;  MISO: 0x00
5.044435880000000,SPI,MOSI: 0xCC;  MISO: 0x00
5.044692220000000,SPI,MOSI: 0x08;  MISO: 0x00
5.044772260000000,SPI,MOSI: 0x05;  MISO: 0x00
5.045031940000000,SPI,MOSI: 0x08;  MISO: 0x00
5.045111960000000,SPI,MOSI: 0x66;  MISO: 0x00
5.045372840000000,SPI,MOSI: 0x08;  MISO: 0x00
5.045452860000000,SPI,MOSI: 0x78;  MISO: 0x00
5.045713400000000,SPI,MOSI: 0x08;  MISO: 0x00
5.045793440000000,SPI,MOSI: 0xD9;  MISO: 0x00
5.046052820000000,SPI,MOSI: 0x08;  MISO: 0x00
5.046132860000000,SPI,MOSI: 0x41;  MISO: 0x00
5.046393560000000,SPI,MOSI: 0x08;  MISO: 0x00
5.046473580000000,SPI,MOSI: 0x22;  MISO: 0x00
5.046732140000000,SPI,MOSI: 0x08;  MISO: 0x00
5.046812180000000,SPI,MOSI: 0x5E;  MISO: 0x00
5.047071880000000,SPI,MOSI: 0x08;  MISO: 0x00
5.047151900000000,SPI,MOSI: 0x90;  MISO: 0x00
5.047412820000000,SPI,MOSI: 0x08;  MISO: 0x00
5.047492840000000,SPI,MOSI: 0xC1;  MISO: 0x00
5.047753800000000,SPI,MOSI: 0x08;  MISO: 0x00
5.047833820000000,SPI,MOSI: 0xB5;  MISO: 0x00
5.048093760000000,SPI,MOSI: 0x08;  MISO: 0x00
5.048173780000000,SPI,MOSI: 0x8F;  MISO: 0x00
5.048433300000000,SPI,MOSI: 0x08;  MISO: 0x00
5.048513320000000,SPI,MOSI: 0xB1;  MISO: 0x00
5.048771500000000,SPI,MOSI: 0x08;  MISO: 0x00
5.048851520000000,SPI,MOSI: 0xF7;  MISO: 0x00
5.049111200000000,SPI,MOSI: 0x08;  MISO: 0x00
5.049191220000000,SPI,MOSI: 0x1F;  MISO: 0x00
5.049449700000000,SPI,MOSI: 0x08;  MISO: 0x00
5.049529740000000,SPI,MOSI: 0x8D;  MISO: 0x00
5.049789480000000,SPI,MOSI: 0x08;  MISO: 0x00
5.049869500000000,SPI,MOSI: 0xDE;  MISO: 0x00
5.050128060000000,SPI,MOSI: 0x08;  MISO: 0x00
5.050208100000000,SPI,MOSI: 0x9A;  MISO: 0x00
5.050466840000000,SPI,MOSI: 0x08;  MISO: 0x00
5.050546880000000,SPI,MOSI: 0xEB;  MISO: 0x00
5.050805720000000,SPI,MOSI: 0x08;  MISO: 0x00
5.050885760000000,SPI,MOSI: 0xAE;  MISO: 0x00
5.051147580000000,SPI,MOSI: 0x88;  MISO: 0x00
5.051227620000000,SPI,MOSI: 0xD6;  MISO: 0x00
5.051490480000000,SPI,MOSI: 0x08;  MISO: 0x00
5.051570500000000,SPI,MOSI: 0x79;  MISO: 0x00
5.051832380000000,SPI,MOSI: 0x08;  MISO: 0x00
5.051912420000000,SPI,MOSI: 0xDA;  MISO: 0x00
5.052171600000000,SPI,MOSI: 0x08;  MISO: 0x00
5.052251640000000,SPI,MOSI: 0xF6;  MISO: 0x00
5.052514340000000,SPI,MOSI: 0x08;  MISO: 0x00
5.052594380000000,SPI,MOSI: 0x14;  MISO: 0x00
5.052855120000000,SPI,MOSI: 0x08;  MISO: 0x00
5.052935140000000,SPI,MOSI: 0x43;  MISO: 0x00
5.053195960000000,SPI,MOSI: 0x08;  MISO: 0x00
5.053275980000000,SPI,MOSI: 0x60;  MISO: 0x00
5.053535000000000,SPI,MOSI: 0x08;  MISO: 0x00
5.053615020000000,SPI,MOSI: 0xF2;  MISO: 0x00
5.053873620000000,SPI,MOSI: 0x08;  MISO: 0x00
5.053953640000000,SPI,MOSI: 0x25;  MISO: 0x00
5.054312140000000,SPI,MOSI: 0x08;  MISO: 0x00
5.054392180000000,SPI,MOSI: 0xC3;  MISO: 0x00
5.054662920000000,SPI,MOSI: 0x08;  MISO: 0x00
5.054742940000000,SPI,MOSI: 0x1C;  MISO: 0x00
5.055003700000000,SPI,MOSI: 0x08;  MISO: 0x00
5.055083740000000,SPI,MOSI: 0x5E;  MISO: 0x00
5.055345160000000,SPI,MOSI: 0x08;  MISO: 0x00
5.055425180000000,SPI,MOSI: 0x15;  MISO: 0x00
5.055688060000000,SPI,MOSI: 0x08;  MISO: 0x00
5.055768100000000,SPI,MOSI: 0x08;  MISO: 0x00
5.056027760000000,SPI,MOSI: 0x08;  MISO: 0x00
5.056107780000000,SPI,MOSI: 0x38;  MISO: 0x00
5.056366540000000,SPI,MOSI: 0x08;  MISO: 0x00
5.056446580000000,SPI,MOSI: 0x88;  MISO: 0x00
5.056708700000000,SPI,MOSI: 0x08;  MISO: 0x00
5.056788720000000,SPI,MOSI: 0x09;  MISO: 0x00
5.057048720000000,SPI,MOSI: 0x08;  MISO: 0x00
5.057128760000000,SPI,MOSI: 0x5C;  MISO: 0x00
5.057388140000000,SPI,MOSI: 0x08;  MISO: 0x00
5.057468160000000,SPI,MOSI: 0x34;  MISO: 0x00
5.057728040000000,SPI,MOSI: 0x08;  MISO: 0x00
5.057808080000000,SPI,MOSI: 0xEE;  MISO: 0x00
5.058067840000000,SPI,MOSI: 0x08;  MISO: 0x00
5.058147860000000,SPI,MOSI: 0x41;  MISO: 0x00
5.058407120000000,SPI,MOSI: 0x08;  MISO: 0x00
5.058487140000000,SPI,MOSI: 0x8D;  MISO: 0x00
5.058749920000000,SPI,MOSI: 0x08;  MISO: 0x00
5.059091200000000,SPI,MOSI: 0x08;  MISO: 0x00
5.059171240000000,SPI,MOSI: 0xB1;  MISO: 0x00
5.059432420000000,SPI,MOSI: 0x08;  MISO: 0x00
5.059512440000000,SPI,MOSI: 0x48;  MISO: 0x00
5.059771760000000,SPI,MOSI: 0x08;  MISO: 0x00
5.059851800000000,SPI,MOSI: 0x98;  MISO: 0x00
5.060115040000000,SPI,MOSI: 0x08;  MISO: 0x00
5.060195080000000,SPI,MOSI: 0xA8;  MISO: 0x00
5.060455980000000,SPI,MOSI: 0x08;  MISO: 0x00
5.060536000000000,SPI,MOSI: 0x0D;  MISO: 0x00
5.060796840000000,SPI,MOSI: 0x08;  MISO: 0x00
5.060876880000000,SPI,MOSI: 0x9F;  MISO: 0x00
5.061137100000000,SPI,MOSI: 0x08;  MISO: 0x00
5.061217120000000,SPI,MOSI: 0x59;  MISO: 0x00
5.061476960000000,SPI,MOSI: 0x08;  MISO: 0x00
5.061556980000000,SPI,MOSI: 0x1C;  MISO: 0x00
5.061817580000000,SPI,MOSI: 0x08;  MISO: 0x00
5.062239020000000,SPI,MOSI: 0x08;  MISO: 0x00
5.062319040000000,SPI,MOSI: 0x0C;  MISO: 0x00
5.062605860000000,SPI,MOSI: 0x08;  MISO: 0x00
5.062685880000000,SPI,MOSI: 0x9D;  MISO: 0x00
5.062946760000000,SPI,MOSI: 0x08;  MISO: 0x00
5.063026780000000,SPI,MOSI: 0xF0;  MISO: 0x00
5.063288420000000,SPI,MOSI: 0x08;  MISO: 0x00
5.063368440000000,SPI,MOSI: 0xAE;  MISO: 0x00
5.063628200000000,SPI,MOSI: 0x08;  MISO: 0x00
5.063708240000000,SPI,MOSI: 0x1E;  MISO: 0x00
5.063968500000000,SPI,MOSI: 0x08;  MISO: 0x00
5.064048540000000,SPI,MOSI: 0xF8;  MISO: 0x00
5.064380840000000,SPI,MOSI: 0x08;  MISO: 0x00
5.064460860000000,SPI,MOSI: 0xB3;  MISO: 0x00
5.064712820000000,SPI,MOSI: 0x08;  MISO: 0x00
5.064792860000000,SPI,MOSI: 0xD5;  MISO: 0x00
5.065053800000000,SPI,MOSI: 0x08;  MISO: 0x00
5.065133840000000,SPI,MOSI: 0x6D;  MISO: 0x00
5.065394580000000,SPI,MOSI: 0x08;  MISO: 0x00
5.065474600000000,SPI,MOSI: 0x6E;  MISO: 0x00
5.065734700000000,SPI,MOSI: 0x08;  MISO: 0x00
5.065814740000000,SPI,MOSI: 0x0C;  MISO: 0x00
5.066077640000000,SPI,MOSI: 0x08;  MISO: 0x00
5.066157680000000,SPI,MOSI: 0x3D;  MISO: 0x00
5.066416540000000,SPI,MOSI: 0x08;  MISO: 0x00
5.066496560000000,SPI,MOSI: 0x76;  MISO: 0x00
5.066754620000000,SPI,MOSI: 0x08;  MISO: 0x00
5.066834660000000,SPI,MOSI: 0xC6;  MISO: 0x00
5.067096080000000,SPI,MOSI: 0x08;  MISO: 0x00
5.067176100000000,SPI,MOSI: 0xAC;  MISO: 0x00
5.067439420000000,SPI,MOSI: 0x88;  MISO: 0x00
5.067519460000000,SPI,MOSI: 0x2E;  MISO: 0x00
5.067832780000000,SPI,MOSI: 0x1F;  MISO: 0x00
5.068123300000000,SPI,MOSI: 0x08;  MISO: 0x00
5.068203320000000,SPI,MOSI: 0x8E;  MISO: 0x00
5.068464340000000,SPI,MOSI: 0x08;  MISO: 0x00
5.068544360000000,SPI,MOSI: 0x5D;  MISO: 0x00
5.068808880000000,SPI,MOSI: 0x08;  MISO: 0x00
5.068888920000000,SPI,MOSI: 0x7B;  MISO: 0x00
5.069150700000000,SPI,MOSI: 0x08;  MISO: 0x00
5.069230740000000,SPI,MOSI: 0x8E;  MISO: 0x00
5.069489500000000,SPI,MOSI: 0x08;  MISO: 0x00
5.069569520000000,SPI,MOSI: 0x61;  MISO: 0x00
5.069829360000000,SPI,MOSI: 0x08;  MISO: 0x00
5.069909400000000,SPI,MOSI: 0xEE;  MISO: 0x00
5.070170200000000,SPI,MOSI: 0x08;  MISO: 0x00
5.070250220000000,SPI,MOSI: 0xCE;  MISO: 0x00
5.070510160000000,SPI,MOSI: 0x08;  MISO: 0x00
5.070590180000000,SPI,MOSI: 0x33;  MISO: 0x00
5.070848680000000,SPI,MOSI: 0x08;  MISO: 0x00
5.071186380000000,SPI,MOSI: 0x08;  MISO: 0x00
5.071266400000000,SPI,MOSI: 0xB2;  MISO: 0x00
5.071526280000000,SPI,MOSI: 0x08;  MISO: 0x00
5.071606320000000,SPI,MOSI: 0x32;  MISO: 0x00
5.071865900000000,SPI,MOSI: 0x08;  MISO: 0x00
5.071945940000000,SPI,MOSI: 0x9E;  MISO: 0x00
5.072206820000000,SPI,MOSI: 0x08;  MISO: 0x00
5.072286860000000,SPI,MOSI: 0x29;  MISO: 0x00
5.072547080000000,SPI,MOSI: 0x08;  MISO: 0x00
5.072627120000000,SPI,MOSI: 0x5D;  MISO: 0x00
5.072889040000000,SPI,MOSI: 0x08;  MISO: 0x00
5.072969060000000,SPI,MOSI: 0x49;  MISO: 0x00
5.073231760000000,SPI,MOSI: 0x08;  MISO: 0x00
5.073311800000000,SPI,MOSI: 0x33;  MISO: 0x00
5.073573380000000,SPI,MOSI: 0x08;  MISO: 0x00
5.073653400000000,SPI,MOSI: 0x0E;  MISO: 0x00
5.073915620000000,SPI,MOSI: 0x08;  MISO: 0x00
5.073995640000000,SPI,MOSI: 0xD0;  MISO: 0x00
5.074358420000000,SPI,MOSI: 0x08;  MISO: 0x00
5.074438440000000,SPI,MOSI: 0x63;  MISO: 0x00
5.074692940000000,SPI,MOSI: 0x08;  MISO: 0x00
5.074772980000000,SPI,MOSI: 0xE7;  MISO: 0x00
5.075034840000000,SPI,MOSI: 0x08;  MISO: 0x00
5.075114860000000,SPI,MOSI: 0xAD;  MISO: 0x00
5.075375000000000,SPI,MOSI: 0x08;  MISO: 0x00
5.075455040000000,SPI,MOSI: 0x0B;  MISO: 0x00
5.075716980000000,SPI,MOSI: 0x08;  MISO: 0x00
5.075797000000000,SPI,MOSI: 0xF8;  MISO: 0x00
5.076057860000000,SPI,MOSI: 0x08;  MISO: 0x00
5.076137880000000,SPI,MOSI: 0x00;  MISO: 0x00
5.076398960000000,SPI,MOSI: 0x88;  MISO: 0x00
5.076479000000000,SPI,MOSI: 0xA0;  MISO: 0x00
5.076742280000000,SPI,MOSI: 0x08;  MISO: 0x00
5.076822320000000,SPI,MOSI: 0x3D;  MISO: 0x00
5.077082820000000,SPI,MOSI: 0x08;  MISO: 0x00
5.077162860000000,SPI,MOSI: 0xC0;  MISO: 0x00
5.077422060000000,SPI,MOSI: 0x08;  MISO: 0x00
5.077775100000000,SPI,MOSI: 0x08;  MISO: 0x00
5.078115240000000,SPI,MOSI: 0x08;  MISO: 0x00
5.078195260000000,SPI,MOSI: 0x22;  MISO: 0x00
5.078457560000000,SPI,MOSI: 0x08;  MISO: 0x00
5.078537580000000,SPI,MOSI: 0x19;  MISO: 0x00
5.078797540000000,SPI,MOSI: 0x08;  MISO: 0x00
5.078877560000000,SPI,MOSI: 0xE4;  MISO: 0x00
5.079137400000000,SPI,MOSI: 0x08;  MISO: 0x00
5.079217420000000,SPI,MOSI: 0x3C;  MISO: 0x00
5.079518960000000,SPI,MOSI: 0x08;  MISO: 0x00
5.079599000000000,SPI,MOSI: 0x68;  MISO: 0x00
5.079884140000000,SPI,MOSI: 0x08;  MISO: 0x00
5.079964160000000,SPI,MOSI: 0x8E;  MISO: 0x00
5.080223580000000,SPI,MOSI: 0x08;  MISO: 0x00
5.080303600000000,SPI,MOSI: 0x03;  MISO: 0x00
5.080564340000000,SPI,MOSI: 0x08;  MISO: 0x00
5.080903420000000,SPI,MOSI: 0x08;  MISO: 0x00
5.080983440000000,SPI,MOSI: 0x60;  MISO: 0x00
5.081245040000000,SPI,MOSI: 0x08;  MISO: 0x00
5.081325080000000,SPI,MOSI: 0x1C;  MISO: 0x00
5.081586680000000,SPI,MOSI: 0x88;  MISO: 0x00
5.081666720000000,SPI,MOSI: 0x0F;  MISO: 0x00
5.081925440000000,SPI,MOSI: 0x08;  MISO: 0x00
5.082005480000000,SPI,MOSI: 0x6B;  MISO: 0x00
5.082269700000000,SPI,MOSI: 0x08;  MISO: 0x00
5.082349720000000,SPI,MOSI: 0x6C;  MISO: 0x00
5.082612040000000,SPI,MOSI: 0x08;  MISO: 0x00
5.082692080000000,SPI,MOSI: 0x56;  MISO: 0x00
5.082953040000000,SPI,MOSI: 0x08;  MISO: 0x00
5.083033060000000,SPI,MOSI: 0xF2;  MISO: 0x00
5.083294460000000,SPI,MOSI: 0x08;  MISO: 0x00
5.083374500000000,SPI,MOSI: 0xF9;  MISO: 0x00
5.083635140000000,SPI,MOSI: 0x08;  MISO: 0x00
5.083715180000000,SPI,MOSI: 0x65;  MISO: 0x00
5.083976560000000,SPI,MOSI: 0x08;  MISO: 0x00
5.084056580000000,SPI,MOSI: 0x7A;  MISO: 0x00
5.084384300000000,SPI,MOSI: 0x88;  MISO: 0x00
5.084464340000000,SPI,MOSI: 0x08;  MISO: 0x00
5.084730580000000,SPI,MOSI: 0x08;  MISO: 0x00
5.084810620000000,SPI,MOSI: 0xA4;  MISO: 0x00
5.085069900000000,SPI,MOSI: 0x08;  MISO: 0x00
5.085149920000000,SPI,MOSI: 0x19;  MISO: 0x00
5.085411060000000,SPI,MOSI: 0x08;  MISO: 0x00
5.085491080000000,SPI,MOSI: 0x18;  MISO: 0x00
5.085750300000000,SPI,MOSI: 0x08;  MISO: 0x00
5.085830340000000,SPI,MOSI: 0xC3;  MISO: 0x00
5.086091240000000,SPI,MOSI: 0x08;  MISO: 0x00
5.086171260000000,SPI,MOSI: 0x56;  MISO: 0x00
5.086432660000000,SPI,MOSI: 0x08;  MISO: 0x00
5.086512700000000,SPI,MOSI: 0x38;  MISO: 0x00
5.086772560000000,SPI,MOSI: 0x08;  MISO: 0x00
5.086852580000000,SPI,MOSI: 0xAC;  MISO: 0x00
5.087112280000000,SPI,MOSI: 0x88;  MISO: 0x00
5.087192320000000,SPI,MOSI: 0xDF;  MISO: 0x00
5.087451180000000,SPI,MOSI: 0x08;  MISO: 0x00
5.087531220000000,SPI,MOSI: 0x86;  MISO: 0x00
5.087789660000000,SPI,MOSI: 0x08;  MISO: 0x00
5.087869680000000,SPI,MOSI: 0xF0;  MISO: 0x00
5.088130340000000,SPI,MOSI: 0x88;  MISO: 0x00
5.088210380000000,SPI,MOSI: 0xC2;  MISO: 0x00
5.088722700000000,SPI,MOSI: 0x08;  MISO: 0x00
5.088802720000000,SPI,MOSI: 0x9E;  MISO: 0x00
5.089052500000000,SPI,MOSI: 0x08;  MISO: 0x00
5.089132540000000,SPI,MOSI: 0x01;  MISO: 0x00
5.089395280000000,SPI,MOSI: 0x08;  MISO: 0x00
5.089735660000000,SPI,MOSI: 0x08;  MISO: 0x00
5.089815680000000,SPI,MOSI: 0x3F;  MISO: 0x00
5.090079980000000,SPI,MOSI: 0x08;  MISO: 0x00
5.090160020000000,SPI,MOSI: 0xFC;  MISO: 0x00
5.090421900000000,SPI,MOSI: 0x08;  MISO: 0x00
5.090501920000000,SPI,MOSI: 0xD7;  MISO: 0x00
5.090760520000000,SPI,MOSI: 0x08;  MISO: 0x00
5.090840540000000,SPI,MOSI: 0x51;  MISO: 0x00
5.091101620000000,SPI,MOSI: 0x08;  MISO: 0x00
5.091181640000000,SPI,MOSI: 0xF9;  MISO: 0x00
5.091442540000000,SPI,MOSI: 0x08;  MISO: 0x00
5.091522560000000,SPI,MOSI: 0x7F;  MISO: 0x00
5.091782600000000,SPI,MOSI: 0x08;  MISO: 0x00
5.091862640000000,SPI,MOSI: 0xB3;  MISO: 0x00
5.092121380000000,SPI,MOSI: 0x08;  MISO: 0x00
5.092201400000000,SPI,MOSI: 0xB3;  MISO: 0x00
5.092462320000000,SPI,MOSI: 0x08;  MISO: 0x00
5.092542340000000,SPI,MOSI: 0x90;  MISO: 0x00
5.092803180000000,SPI,MOSI: 0x08;  MISO: 0x00
5.092883200000000,SPI,MOSI: 0xA4;  MISO: 0x00
5.093142680000000,SPI,MOSI: 0x08;  MISO: 0x00
5.093222700000000,SPI,MOSI: 0x7F;  MISO: 0x00
5.093483260000000,SPI,MOSI: 0x08;  MISO: 0x00
5.093563300000000,SPI,MOSI: 0x00;  MISO: 0x00
5.093822160000000,SPI,MOSI: 0x08;  MISO: 0x00
5.093902200000000,SPI,MOSI: 0x70;  MISO: 0x00
5.094163520000000,SPI,MOSI: 0x08;  MISO: 0x00
5.094243540000000,SPI,MOSI: 0x80;  MISO: 0x00
5.094571800000000,SPI,MOSI: 0x08;  MISO: 0x00
5.094651840000000,SPI,MOSI: 0x91;  MISO: 0x00
5.094914300000000,SPI,MOSI: 0x08;  MISO: 0x00
5.094994340000000,SPI,MOSI: 0x68;  MISO: 0x00
5.095254900000000,SPI,MOSI: 0x08;  MISO: 0x00
5.095334920000000,SPI,MOSI: 0x48;  MISO: 0x00
5.095594660000000,SPI,MOSI: 0x08;  MISO: 0x00
5.095674700000000,SPI,MOSI: 0x0B;  MISO: 0x00
5.095935380000000,SPI,MOSI: 0x08;  MISO: 0x00
5.096015400000000,SPI,MOSI: 0x03;  MISO: 0x00
5.096274400000000,SPI,MOSI: 0x08;  MISO: 0x00
5.096354440000000,SPI,MOSI: 0x13;  MISO: 0x00
5.096613940000000,SPI,MOSI: 0x08;  MISO: 0x00
5.096693960000000,SPI,MOSI: 0xF3;  MISO: 0x00
5.096954540000000,SPI,MOSI: 0x08;  MISO: 0x00
5.097034580000000,SPI,MOSI: 0x45;  MISO: 0x00
5.097293060000000,SPI,MOSI: 0x08;  MISO: 0x00
5.097373100000000,SPI,MOSI: 0x16;  MISO: 0x00
5.097633680000000,SPI,MOSI: 0x08;  MISO: 0x00
5.097713700000000,SPI,MOSI: 0xEC;  MISO: 0x00
5.097975780000000,SPI,MOSI: 0x08;  MISO: 0x00
5.098055800000000,SPI,MOSI: 0xD4;  MISO: 0x00
5.098314760000000,SPI,MOSI: 0x08;  MISO: 0x00
5.098394780000000,SPI,MOSI: 0xAC;  MISO: 0x00
5.098657480000000,SPI,MOSI: 0x08;  MISO: 0x00
5.098737500000000,SPI,MOSI: 0x01;  MISO: 0x00
5.098999700000000,SPI,MOSI: 0x08;  MISO: 0x00
5.099079720000000,SPI,MOSI: 0x71;  MISO: 0x00
5.099338900000000,SPI,MOSI: 0x08;  MISO: 0x00
5.099418940000000,SPI,MOSI: 0xD2;  MISO: 0x00
5.099675600000000,SPI,MOSI: 0x08;  MISO: 0x00
5.099755620000000,SPI,MOSI: 0x36;  MISO: 0x00
5.100017240000000,SPI,MOSI: 0x08;  MISO: 0x00
5.100097280000000,SPI,MOSI: 0xEF;  MISO: 0x00
5.100357780000000,SPI,MOSI: 0x08;  MISO: 0x00
5.100437820000000,SPI,MOSI: 0x4A;  MISO: 0x00
5.100698600000000,SPI,MOSI: 0x08;  MISO: 0x00
5.100778640000000,SPI,MOSI: 0x01;  MISO: 0x00
5.101039360000000,SPI,MOSI: 0x08;  MISO: 0x00
5.101381520000000,SPI,MOSI: 0x08;  MISO: 0x00
5.101461560000000,SPI,MOSI: 0xCF;  MISO: 0x00
5.101723880000000,SPI,MOSI: 0x08;  MISO: 0x00
5.101803920000000,SPI,MOSI: 0x70;  MISO: 0x00
5.102062680000000,SPI,MOSI: 0x08;  MISO: 0x00
5.102142700000000,SPI,MOSI: 0x03;  MISO: 0x00
5.102405740000000,SPI,MOSI: 0x08;  MISO: 0x00
5.102485760000000,SPI,MOSI: 0x00;  MISO: 0x00
5.102743800000000,SPI,MOSI: 0x08;  MISO: 0x00
5.102823820000000,SPI,MOSI: 0xBF;  MISO: 0x00
5.103084760000000,SPI,MOSI: 0x08;  MISO: 0x00
5.103164780000000,SPI,MOSI: 0xB9;  MISO: 0x00
5.103424180000000,SPI,MOSI: 0x08;  MISO: 0x00
5.103504200000000,SPI,MOSI: 0x7B;  MISO: 0x00
5.103763760000000,SPI,MOSI: 0x08;  MISO: 0x00
5.103843800000000,SPI,MOSI: 0xC7;  MISO: 0x00
5.104103260000000,SPI,MOSI: 0x08;  MISO: 0x00
5.104183280000000,SPI,MOSI: 0x73;  MISO: 0x00
5.104480260000000,SPI,MOSI: 0x08;  MISO: 0x00
5.104560280000000,SPI,MOSI: 0x58;  MISO: 0x00
5.104822800000000,SPI,MOSI: 0x08;  MISO: 0x00
5.104902840000000,SPI,MOSI: 0x70;  MISO: 0x00
5.105163980000000,SPI,MOSI: 0x08;  MISO: 0x00
5.105244020000000,SPI,MOSI: 0xA0;  MISO: 0x00
5.105503260000000,SPI,MOSI: 0x08;  MISO: 0x00
5.105583300000000,SPI,MOSI: 0x87;  MISO: 0x00
5.105846140000000,SPI,MOSI: 0x88;  MISO: 0x00
5.105926180000000,SPI,MOSI: 0x9C;  MISO: 0x00
5.106187080000000,SPI,MOSI: 0x08;  MISO: 0x00
5.106267100000000,SPI,MOSI: 0x2C;  MISO: 0x00
5.106529780000000,SPI,MOSI: 0x88;  MISO: 0x00
5.106609820000000,SPI,MOSI: 0x3B;  MISO: 0x00
5.106871800000000,SPI,MOSI: 0x08;  MISO: 0x00
5.106951840000000,SPI,MOSI: 0x8D;  MISO: 0x00
5.107211960000000,SPI,MOSI: 0x08;  MISO: 0x00
5.107291980000000,SPI,MOSI: 0x77;  MISO: 0x00
5.107552380000000,SPI,MOSI: 0x08;  MISO: 0x00
5.107632400000000,SPI,MOSI: 0xCE;  MISO: 0x00
5.108045080000000,SPI,MOSI: 0x08;  MISO: 0x00
5.108125100000000,SPI,MOSI: 0x0F;  MISO: 0x00
5.108388100000000,SPI,MOSI: 0x08;  MISO: 0x00
5.108468120000000,SPI,MOSI: 0x52;  MISO: 0x00
5.108727140000000,SPI,MOSI: 0x08;  MISO: 0x00
5.108807180000000,SPI,MOSI: 0x5F;  MISO: 0x00
5.109069960000000,SPI,MOSI: 0x08;  MISO: 0x00
5.109150000000000,SPI,MOSI: 0xA2;  MISO: 0x00
5.109411220000000,SPI,MOSI: 0x08;  MISO: 0x00
5.109491240000000,SPI,MOSI: 0x00;  MISO: 0x00
5.109752360000000,SPI,MOSI: 0x08;  MISO: 0x00
5.109832380000000,SPI,MOSI: 0x75;  MISO: 0x00
5.110096320000000,SPI,MOSI: 0x88;  MISO: 0x00
5.110176360000000,SPI,MOSI: 0xF9;  MISO: 0x00
5.110434380000000,SPI,MOSI: 0x08;  MISO: 0x00
5.110514420000000,SPI,MOSI: 0xAD;  MISO: 0x00
5.110773500000000,SPI,MOSI: 0x08;  MISO: 0x00
5.110853540000000,SPI,MOSI: 0xA2;  MISO: 0x00
5.111113880000000,SPI,MOSI: 0x08;  MISO: 0x00
5.111193900000000,SPI,MOSI: 0xB9;  MISO: 0x00
5.111456120000000,SPI,MOSI: 0x08;  MISO: 0x00
5.111536160000000,SPI,MOSI: 0x80;  MISO: 0x00
5.111796540000000,SPI,MOSI: 0x08;  MISO: 0x00
5.111876560000000,SPI,MOSI: 0x55;  MISO: 0x00
5.112137320000000,SPI,MOSI: 0x08;  MISO: 0x00
5.112217340000000,SPI,MOSI: 0xDF;  MISO: 0x00
5.112480220000000,SPI,MOSI: 0x08;  MISO: 0x00
5.112560240000000,SPI,MOSI: 0x41;  MISO: 0x00
5.112822540000000,SPI,MOSI: 0x88;  MISO: 0x00
5.112902580000000,SPI,MOSI: 0xBF;  MISO: 0x00
5.113165600000000,SPI,MOSI: 0x08;  MISO: 0x00
5.113505980000000,SPI,MOSI: 0x08;  MISO: 0x00
5.113586000000000,SPI,MOSI: 0x4D;  MISO: 0x00
5.113845520000000,SPI,MOSI: 0x08;  MISO: 0x00
5.114283660000000,SPI,MOSI: 0x08;  MISO: 0x00
5.114363680000000,SPI,MOSI: 0x2B;  MISO: 0x00
5.114636000000000,SPI,MOSI: 0x08;  MISO: 0x00
5.114716020000000,SPI,MOSI: 0x81;  MISO: 0x00
5.114976920000000,SPI,MOSI: 0x08;  MISO: 0x00
5.115056960000000,SPI,MOSI: 0xE2;  MISO: 0x00
5.115318620000000,SPI,MOSI: 0x08;  MISO: 0x00
5.115398640000000,SPI,MOSI: 0xF0;  MISO: 0x00
5.115659440000000,SPI,MOSI: 0x08;  MISO: 0x00
5.115739460000000,SPI,MOSI: 0x79;  MISO: 0x00
5.116002020000000,SPI,MOSI: 0x08;  MISO: 0x00
5.116082040000000,SPI,MOSI: 0xAB;  MISO: 0x00
5.116341640000000,SPI,MOSI: 0x08;  MISO: 0x00
5.116421660000000,SPI,MOSI: 0x71;  MISO: 0x00
5.116680120000000,SPI,MOSI: 0x08;  MISO: 0x00
5.116760140000000,SPI,MOSI: 0xB9;  MISO: 0x00
5.117022260000000,SPI,MOSI: 0x08;  MISO: 0x00
5.117102280000000,SPI,MOSI: 0xA8;  MISO: 0x00
5.117363160000000,SPI,MOSI: 0x08;  MISO: 0x00
5.117443180000000,SPI,MOSI: 0x3C;  MISO: 0x00
5.117703160000000,SPI,MOSI: 0x08;  MISO: 0x00
5.117783180000000,SPI,MOSI: 0x28;  MISO: 0x00
5.118042400000000,SPI,MOSI: 0x08;  MISO: 0x00
5.118122440000000,SPI,MOSI: 0xD9;  MISO: 0x00
5.118382340000000,SPI,MOSI: 0x08;  MISO: 0x00
5.118462380000000,SPI,MOSI: 0x45;  MISO: 0x00
5.118722640000000,SPI,MOSI: 0x08;  MISO: 0x00
5.118802660000000,SPI,MOSI: 0x77;  MISO: 0x00
5.119064500000000,SPI,MOSI: 0x08;  MISO: 0x00
5.119404940000000,SPI,MOSI: 0x08;  MISO: 0x00
5.119484980000000,SPI,MOSI: 0xB0;  MISO: 0x00
5.119746760000000,SPI,MOSI: 0x08;  MISO: 0x00
5.119826780000000,SPI,MOSI: 0xCD;  MISO: 0x00
5.120090340000000,SPI,MOSI: 0x88;  MISO: 0x00
5.120170380000000,SPI,MOSI: 0x21;  MISO: 0x00
5.120429340000000,SPI,MOSI: 0x08;  MISO: 0x00
5.120509360000000,SPI,MOSI: 0x2A;  MISO: 0x00
5.120769860000000,SPI,MOSI: 0x08;  MISO: 0x00
5.120849880000000,SPI,MOSI: 0xC9;  MISO: 0x00
5.121113300000000,SPI,MOSI: 0x08;  MISO: 0x00
5.121193340000000,SPI,MOSI: 0x03;  MISO: 0x00
5.121454660000000,SPI,MOSI: 0x08;  MISO: 0x00
5.121534700000000,SPI,MOSI: 0xD8;  MISO: 0x00
5.121793880000000,SPI,MOSI: 0x08;  MISO: 0x00
5.121873900000000,SPI,MOSI: 0x4E;  MISO: 0x00
5.122133240000000,SPI,MOSI: 0x08;  MISO: 0x00
5.122213280000000,SPI,MOSI: 0xF1;  MISO: 0x00
5.122474480000000,SPI,MOSI: 0x08;  MISO: 0x00
5.122554500000000,SPI,MOSI: 0xC2;  MISO: 0x00
5.122816440000000,SPI,MOSI: 0x08;  MISO: 0x00
5.123155060000000,SPI,MOSI: 0x08;  MISO: 0x00
5.123235080000000,SPI,MOSI: 0x63;  MISO: 0x00
5.123495160000000,SPI,MOSI: 0x08;  MISO: 0x00
5.123575200000000,SPI,MOSI: 0xC4;  MISO: 0x00
5.123835440000000,SPI,MOSI: 0x08;  MISO: 0x00
5.123915480000000,SPI,MOSI: 0xCC;  MISO: 0x00
5.124219860000000,SPI,MOSI: 0x08;  MISO: 0x00
5.124299880000000,SPI,MOSI: 0x05;  MISO: 0x00
5.124587780000000,SPI,MOSI: 0x08;  MISO: 0x00
5.124667820000000,SPI,MOSI: 0x66;  MISO: 0x00
5.124930100000000,SPI,MOSI: 0x08;  MISO: 0x00
5.125010120000000,SPI,MOSI: 0x78;  MISO: 0x00
5.125271240000000,SPI,MOSI: 0x08;  MISO: 0x00
5.125351260000000,SPI,MOSI: 0xD9;  MISO: 0x00
5.125614400000000,SPI,MOSI: 0x08;  MISO: 0x00
5.125694420000000,SPI,MOSI: 0x41;  MISO: 0x00
5.125953160000000,SPI,MOSI: 0x08;  MISO: 0x00
5.126033180000000,SPI,MOSI: 0x22;  MISO: 0x00
5.126290900000000,SPI,MOSI: 0x08;  MISO: 0x00
5.126370940000000,SPI,MOSI: 0x5E;  MISO: 0x00
5.126633360000000,SPI,MOSI: 0x08;  MISO: 0x00
5.126713380000000,SPI,MOSI: 0x90;  MISO: 0x00
5.126977080000000,SPI,MOSI: 0x08;  MISO: 0x00
5.127057120000000,SPI,MOSI: 0xC1;  MISO: 0x00
5.127318080000000,SPI,MOSI: 0x08;  MISO: 0x00
5.127661540000000,SPI,MOSI: 0x08;  MISO: 0x00
5.127741580000000,SPI,MOSI: 0x8F;  MISO: 0x00
5.128001940000000,SPI,MOSI: 0x88;  MISO: 0x00
5.128081980000000,SPI,MOSI: 0xB1;  MISO: 0x00
5.128342060000000,SPI,MOSI: 0x08;  MISO: 0x00
5.128422080000000,SPI,MOSI: 0xF7;  MISO: 0x00
5.128732380000000,SPI,MOSI: 0x03;  MISO: 0x00
5.129025060000000,SPI,MOSI: 0x08;  MISO: 0x00
5.129105100000000,SPI,MOSI: 0x8D;  MISO: 0x00
5.129366300000000,SPI,MOSI: 0x88;  MISO: 0x00
5.129446340000000,SPI,MOSI: 0xDE;  MISO: 0x00
5.129708980000000,SPI,MOSI: 0x08;  MISO: 0x00
5.129789020000000,SPI,MOSI: 0x9A;  MISO: 0x00
5.130052860000000,SPI,MOSI: 0x08;  MISO: 0x00
5.130392980000000,SPI,MOSI: 0x08;  MISO: 0x00
5.130473000000000,SPI,MOSI: 0xAE;  MISO: 0x00
5.130731260000000,SPI,MOSI: 0x88;  MISO: 0x00
5.130811300000000,SPI,MOSI: 0xD6;  MISO: 0x00
5.131072920000000,SPI,MOSI: 0x08;  MISO: 0x00
5.131152960000000,SPI,MOSI: 0x79;  MISO: 0x00
5.131415100000000,SPI,MOSI: 0x08;  MISO: 0x00
5.131495120000000,SPI,MOSI: 0xDA;  MISO: 0x00
5.131757840000000,SPI,MOSI: 0x08;  MISO: 0x00
5.131837860000000,SPI,MOSI: 0xF6;  MISO: 0x00
5.132098080000000,SPI,MOSI: 0x08;  MISO: 0x00
5.132178120000000,SPI,MOSI: 0x14;  MISO: 0x00
5.132442320000000,SPI,MOSI: 0x08;  MISO: 0x00
5.132522340000000,SPI,MOSI: 0x43;  MISO: 0x00
5.132783440000000,SPI,MOSI: 0x08;  MISO: 0x00
5.132863480000000,SPI,MOSI: 0x60;  MISO: 0x00
5.133123980000000,SPI,MOSI: 0x08;  MISO: 0x00
5.133204020000000,SPI,MOSI: 0xF2;  MISO: 0x00
5.133467600000000,SPI,MOSI: 0x08;  MISO: 0x00
5.133547620000000,SPI,MOSI: 0x25;  MISO: 0x00
5.133807740000000,SPI,MOSI: 0x08;  MISO: 0x00
5.133887760000000,SPI,MOSI: 0xC3;  MISO: 0x00
5.134197660000000,SPI,MOSI: 0x03;  MISO: 0x00
5.134544360000000,SPI,MOSI: 0x08;  MISO: 0x00
5.134624400000000,SPI,MOSI: 0x5E;  MISO: 0x00
5.134885860000000,SPI,MOSI: 0x08;  MISO: 0x00
5.134965900000000,SPI,MOSI: 0x15;  MISO: 0x00
5.135225080000000,SPI,MOSI: 0x08;  MISO: 0x00
5.135305100000000,SPI,MOSI: 0x08;  MISO: 0x00
5.135565060000000,SPI,MOSI: 0x08;  MISO: 0x00
5.135645080000000,SPI,MOSI: 0x38;  MISO: 0x00
5.135907080000000,SPI,MOSI: 0x08;  MISO: 0x00
5.135987120000000,SPI,MOSI: 0x88;  MISO: 0x00
5.136247660000000,SPI,MOSI: 0x08;  MISO: 0x00
5.136327680000000,SPI,MOSI: 0x09;  MISO: 0x00
5.136589520000000,SPI,MOSI: 0x08;  MISO: 0x00
5.136669540000000,SPI,MOSI: 0x5C;  MISO: 0x00
5.136927960000000,SPI,MOSI: 0x08;  MISO: 0x00
5.137008000000000,SPI,MOSI: 0x34;  MISO: 0x00
5.137271060000000,SPI,MOSI: 0x08;  MISO: 0x00
5.137611520000000,SPI,MOSI: 0x08;  MISO: 0x00
5.137691540000000,SPI,MOSI: 0x41;  MISO: 0x00
5.137951700000000,SPI,MOSI: 0x08;  MISO: 0x00
5.138031720000000,SPI,MOSI: 0x8D;  MISO: 0x00
5.138290780000000,SPI,MOSI: 0x88;  MISO: 0x00
5.138370820000000,SPI,MOSI: 0x54;  MISO: 0x00
5.138679080000000,SPI,MOSI: 0x16;  MISO: 0x00
5.138970560000000,SPI,MOSI: 0x08;  MISO: 0x00
5.139050580000000,SPI,MOSI: 0x48;  MISO: 0x00
5.139309640000000,SPI,MOSI: 0x08;  MISO: 0x00
5.139648920000000,SPI,MOSI: 0x08;  MISO: 0x00
5.139728960000000,SPI,MOSI: 0xA8;  MISO: 0x00
5.139987240000000,SPI,MOSI: 0x08;  MISO: 0x00
5.140067260000000,SPI,MOSI: 0x0D;  MISO: 0x00
5.140325100000000,SPI,MOSI: 0x08;  MISO: 0x00
5.140405120000000,SPI,MOSI: 0x9F;  MISO: 0x00
5.140665260000000,SPI,MOSI: 0x08;  MISO: 0x00
5.140745300000000,SPI,MOSI: 0x59;  MISO: 0x00
5.141003360000000,SPI,MOSI: 0x08;  MISO: 0x00
5.141083400000000,SPI,MOSI: 0x1C;  MISO: 0x00
5.141344400000000,SPI,MOSI: 0x08;  MISO: 0x00
5.141424440000000,SPI,MOSI: 0xD9;  MISO: 0x00
5.141683580000000,SPI,MOSI: 0x08;  MISO: 0x00
5.141763620000000,SPI,MOSI: 0x0C;  MISO: 0x00
5.142025020000000,SPI,MOSI: 0x08;  MISO: 0x00
5.142105060000000,SPI,MOSI: 0x9D;  MISO: 0x00
5.142366080000000,SPI,MOSI: 0x08;  MISO: 0x00
5.142446120000000,SPI,MOSI: 0xF0;  MISO: 0x00
5.142708200000000,SPI,MOSI: 0x08;  MISO: 0x00
5.142788220000000,SPI,MOSI: 0xAE;  MISO: 0x00
5.143049480000000,SPI,MOSI: 0x08;  MISO: 0x00
5.143129500000000,SPI,MOSI: 0x1E;  MISO: 0x00
5.143440080000000,SPI,MOSI: 0x1F;  MISO: 0x00
5.143730460000000,SPI,MOSI: 0x08;  MISO: 0x00
5.143810480000000,SPI,MOSI: 0xB3;  MISO: 0x00
5.144070780000000,SPI,MOSI: 0x08;  MISO: 0x00
5.144150800000000,SPI,MOSI: 0xD5;  MISO: 0x00
5.144443860000000,SPI,MOSI: 0x08;  MISO: 0x00
5.144523880000000,SPI,MOSI: 0x6D;  MISO: 0x00
5.144783400000000,SPI,MOSI: 0x08;  MISO: 0x00
5.144863440000000,SPI,MOSI: 0x6E;  MISO: 0x00
5.145124400000000,SPI,MOSI: 0x08;  MISO: 0x00
5.145204420000000,SPI,MOSI: 0x0C;  MISO: 0x00
5.145464740000000,SPI,MOSI: 0x08;  MISO: 0x00
5.145544780000000,SPI,MOSI: 0x3D;  MISO: 0x00
5.145803480000000,SPI,MOSI: 0x08;  MISO: 0x00
5.145883520000000,SPI,MOSI: 0x76;  MISO: 0x00
5.146144320000000,SPI,MOSI: 0x08;  MISO: 0x00
5.146224360000000,SPI,MOSI: 0xC6;  MISO: 0x00
5.146484120000000,SPI,MOSI: 0x08;  MISO: 0x00
5.146564140000000,SPI,MOSI: 0xAC;  MISO: 0x00
5.146827800000000,SPI,MOSI: 0x08;  MISO: 0x00
5.146907840000000,SPI,MOSI: 0x2E;  MISO: 0x00
5.147168940000000,SPI,MOSI: 0x08;  MISO: 0x00
5.147248960000000,SPI,MOSI: 0xFF;  MISO: 0x00
5.147510520000000,SPI,MOSI: 0x08;  MISO: 0x00
5.147590540000000,SPI,MOSI: 0x8E;  MISO: 0x00
5.147854440000000,SPI,MOSI: 0x08;  MISO: 0x00
5.147934480000000,SPI,MOSI: 0x5D;  MISO: 0x00
5.148195280000000,SPI,MOSI: 0x08;  MISO: 0x00
5.148275300000000,SPI,MOSI: 0x7B;  MISO: 0x00
5.148536740000000,SPI,MOSI: 0x08;  MISO: 0x00
5.148616780000000,SPI,MOSI: 0x8E;  MISO: 0x00
5.148878140000000,SPI,MOSI: 0x08;  MISO: 0x00
5.148958160000000,SPI,MOSI: 0x61;  MISO: 0x00
5.149219520000000,SPI,MOSI: 0x08;  MISO: 0x00
5.149299540000000,SPI,MOSI: 0xEE;  MISO: 0x00
5.149559600000000,SPI,MOSI: 0x08;  MISO: 0x00
5.149639620000000,SPI,MOSI: 0xCE;  MISO: 0x00
5.149900060000000,SPI,MOSI: 0x08;  MISO: 0x00
5.149980080000000,SPI,MOSI: 0x33;  MISO: 0x00
5.150236540000000,SPI,MOSI: 0x08;  MISO: 0x00
5.150316580000000,SPI,MOSI: 0xD8;  MISO: 0x00
5.150577500000000,SPI,MOSI: 0x08;  MISO: 0x00
5.150657540000000,SPI,MOSI: 0xB2;  MISO: 0x00
5.150917520000000,SPI,MOSI: 0x08;  MISO: 0x00
5.150997540000000,SPI,MOSI: 0x32;  MISO: 0x00
5.151255540000000,SPI,MOSI: 0x08;  MISO: 0x00
5.151335560000000,SPI,MOSI: 0x9E;  MISO: 0x00
5.151596380000000,SPI,MOSI: 0x08;  MISO: 0x00
5.151940100000000,SPI,MOSI: 0x08;  MISO: 0x00
5.152020120000000,SPI,MOSI: 0x5D;  MISO: 0x00
5.152279800000000,SPI,MOSI: 0x08;  MISO: 0x00
5.152359840000000,SPI,MOSI: 0x49;  MISO: 0x00
5.152618520000000,SPI,MOSI: 0x08;  MISO: 0x00
5.152698560000000,SPI,MOSI: 0x33;  MISO: 0x00
5.152960180000000,SPI,MOSI: 0x08;  MISO: 0x00
5.153040200000000,SPI,MOSI: 0x0E;  MISO: 0x00
5.153302440000000,SPI,MOSI: 0x08;  MISO: 0x00
5.153382460000000,SPI,MOSI: 0xD0;  MISO: 0x00
5.153644680000000,SPI,MOSI: 0x08;  MISO: 0x00
5.153724700000000,SPI,MOSI: 0x63;  MISO: 0x00
5.153987060000000,SPI,MOSI: 0x08;  MISO: 0x00
5.154067100000000,SPI,MOSI: 0xE7;  MISO: 0x00
5.154435180000000,SPI,MOSI: 0x08;  MISO: 0x00
5.154515200000000,SPI,MOSI: 0xAD;  MISO: 0x00
5.154780580000000,SPI,MOSI: 0x08;  MISO: 0x00
5.154860600000000,SPI,MOSI: 0x0B;  MISO: 0x00
5.155170340000000,SPI,MOSI: 0x1F;  MISO: 0x00
5.155460540000000,SPI,MOSI: 0x08;  MISO: 0x00
5.155540560000000,SPI,MOSI: 0x00;  MISO: 0x00
5.155800580000000,SPI,MOSI: 0x08;  MISO: 0x00
5.155880620000000,SPI,MOSI: 0xA0;  MISO: 0x00
5.156140340000000,SPI,MOSI: 0x08;  MISO: 0x00
5.156220360000000,SPI,MOSI: 0x3D;  MISO: 0x00
5.156478840000000,SPI,MOSI: 0x08;  MISO: 0x00
5.156558880000000,SPI,MOSI: 0xC0;  MISO: 0x00
5.156818520000000,SPI,MOSI: 0x08;  MISO: 0x00
5.157158440000000,SPI,MOSI: 0x08;  MISO: 0x00
5.157238480000000,SPI,MOSI: 0xEC;  MISO: 0x00
5.157498840000000,SPI,MOSI: 0x08;  MISO: 0x00
5.157578860000000,SPI,MOSI: 0x22;  MISO: 0x00
5.157838100000000,SPI,MOSI: 0x08;  MISO: 0x00
5.157918120000000,SPI,MOSI: 0x19;  MISO: 0x00
5.158179520000000,SPI,MOSI: 0x08;  MISO: 0x00
5.158259540000000,SPI,MOSI: 0xE4;  MISO: 0x00
5.158519160000000,SPI,MOSI: 0x08;  MISO: 0x00
5.158599180000000,SPI,MOSI: 0x3C;  MISO: 0x00
5.158861180000000,SPI,MOSI: 0x08;  MISO: 0x00
5.158941220000000,SPI,MOSI: 0x68;  MISO: 0x00
5.159202060000000,SPI,MOSI: 0x08;  MISO: 0x00
5.159282080000000,SPI,MOSI: 0x8E;  MISO: 0x00
5.159544660000000,SPI,MOSI: 0x08;  MISO: 0x00
5.159624700000000,SPI,MOSI: 0x03;  MISO: 0x00
5.159887800000000,SPI,MOSI: 0x08;  MISO: 0x00
5.159967840000000,SPI,MOSI: 0xEB;  MISO: 0x00
5.160229320000000,SPI,MOSI: 0x88;  MISO: 0x00
5.160309360000000,SPI,MOSI: 0x60;  MISO: 0x00
5.160572800000000,SPI,MOSI: 0x08;  MISO: 0x00
5.160652820000000,SPI,MOSI: 0x1C;  MISO: 0x00
5.160914980000000,SPI,MOSI: 0x08;  MISO: 0x00
5.160995000000000,SPI,MOSI: 0x0F;  MISO: 0x00
5.161256280000000,SPI,MOSI: 0x08;  MISO: 0x00
5.161336320000000,SPI,MOSI: 0x6B;  MISO: 0x00
5.161596580000000,SPI,MOSI: 0x08;  MISO: 0x00
5.161676600000000,SPI,MOSI: 0x6C;  MISO: 0x00
5.161937320000000,SPI,MOSI: 0x08;  MISO: 0x00
5.162277880000000,SPI,MOSI: 0x08;  MISO: 0x00
5.162357920000000,SPI,MOSI: 0xF2;  MISO: 0x00
5.162617980000000,SPI,MOSI: 0x08;  MISO: 0x00
5.162698000000000,SPI,MOSI: 0xF9;  MISO: 0x00
5.162957340000000,SPI,MOSI: 0x08;  MISO: 0x00
5.163037360000000,SPI,MOSI: 0x65;  MISO: 0x00
5.163298680000000,SPI,MOSI: 0x08;  MISO: 0x00
5.163378700000000,SPI,MOSI: 0x7A;  MISO: 0x00
5.163639640000000,SPI,MOSI: 0x08;  MISO: 0x00
5.163719680000000,SPI,MOSI: 0x08;  MISO: 0x00
5.163981880000000,SPI,MOSI: 0x08;  MISO: 0x00
5.164061900000000,SPI,MOSI: 0xA4;  MISO: 0x00
5.164390080000000,SPI,MOSI: 0x08;  MISO: 0x00
5.164470100000000,SPI,MOSI: 0x19;  MISO: 0x00
5.164816660000000,SPI,MOSI: 0x08;  MISO: 0x00
5.164896680000000,SPI,MOSI: 0x18;  MISO: 0x00
5.165157500000000,SPI,MOSI: 0x08;  MISO: 0x00
5.165237520000000,SPI,MOSI: 0xC3;  MISO: 0x00
5.165500180000000,SPI,MOSI: 0x08;  MISO: 0x00
5.165580200000000,SPI,MOSI: 0x56;  MISO: 0x00
5.165841060000000,SPI,MOSI: 0x08;  MISO: 0x00
5.165921080000000,SPI,MOSI: 0x38;  MISO: 0x00
5.166180740000000,SPI,MOSI: 0x08;  MISO: 0x00
5.166260760000000,SPI,MOSI: 0xAC;  MISO: 0x00
5.166522820000000,SPI,MOSI: 0x08;  MISO: 0x00
5.166602860000000,SPI,MOSI: 0xDF;  MISO: 0x00
5.166861580000000,SPI,MOSI: 0x08;  MISO: 0x00
5.166941600000000,SPI,MOSI: 0x86;  MISO: 0x00
5.167203600000000,SPI,MOSI: 0x08;  MISO: 0x00
5.167283640000000,SPI,MOSI: 0xF0;  MISO: 0x00
5.167544880000000,SPI,MOSI: 0x08;  MISO: 0x00
5.167624920000000,SPI,MOSI: 0xC2;  MISO: 0x00
5.167886000000000,SPI,MOSI: 0x08;  MISO: 0x00
5.167966040000000,SPI,MOSI: 0x9E;  MISO: 0x00
5.168225440000000,SPI,MOSI: 0x88;  MISO: 0x00
5.168305480000000,SPI,MOSI: 0x01;  MISO: 0x00
5.168567200000000,SPI,MOSI: 0x08;  MISO: 0x00
5.168647240000000,SPI,MOSI: 0x33;  MISO: 0x00
5.168907020000000,SPI,MOSI: 0x08;  MISO: 0x00
5.168987040000000,SPI,MOSI: 0x3F;  MISO: 0x00
5.169248080000000,SPI,MOSI: 0x08;  MISO: 0x00
5.169328120000000,SPI,MOSI: 0xFC;  MISO: 0x00
5.169586240000000,SPI,MOSI: 0x08;  MISO: 0x00
5.169666280000000,SPI,MOSI: 0xD7;  MISO: 0x00
5.169927480000000,SPI,MOSI: 0x08;  MISO: 0x00
5.170007520000000,SPI,MOSI: 0x51;  MISO: 0x00
5.170269160000000,SPI,MOSI: 0x08;  MISO: 0x00
5.170349200000000,SPI,MOSI: 0xF9;  MISO: 0x00
5.170609940000000,SPI,MOSI: 0x08;  MISO: 0x00
5.170689960000000,SPI,MOSI: 0x7F;  MISO: 0x00
5.170949080000000,SPI,MOSI: 0x08;  MISO: 0x00
5.171029100000000,SPI,MOSI: 0xB3;  MISO: 0x00
5.171289700000000,SPI,MOSI: 0x08;  MISO: 0x00
5.171369740000000,SPI,MOSI: 0xB3;  MISO: 0x00
5.171631700000000,SPI,MOSI: 0x08;  MISO: 0x00
5.171711740000000,SPI,MOSI: 0x90;  MISO: 0x00
5.171972520000000,SPI,MOSI: 0x08;  MISO: 0x00
5.172052560000000,SPI,MOSI: 0xA4;  MISO: 0x00
5.172314740000000,SPI,MOSI: 0x08;  MISO: 0x00
5.172394780000000,SPI,MOSI: 0x7F;  MISO: 0x00
5.172656220000000,SPI,MOSI: 0x08;  MISO: 0x00
5.172736240000000,SPI,MOSI: 0x00;  MISO: 0x00
5.172997320000000,SPI,MOSI: 0x08;  MISO: 0x00
5.173077360000000,SPI,MOSI: 0x70;  MISO: 0x00
5.173336880000000,SPI,MOSI: 0x08;  MISO: 0x00
5.173416920000000,SPI,MOSI: 0x80;  MISO: 0x00
5.173676460000000,SPI,MOSI: 0x08;  MISO: 0x00
5.173756480000000,SPI,MOSI: 0x91;  MISO: 0x00
5.174016440000000,SPI,MOSI: 0x08;  MISO: 0x00
5.174096460000000,SPI,MOSI: 0x68;  MISO: 0x00
5.174523220000000,SPI,MOSI: 0x09;  MISO: 0x00
5.174816560000000,SPI,MOSI: 0x08;  MISO: 0x00
5.174896580000000,SPI,MOSI: 0x0B;  MISO: 0x00
5.175158940000000,SPI,MOSI: 0x08;  MISO: 0x00
5.175238960000000,SPI,MOSI: 0x03;  MISO: 0x00
5.175497600000000,SPI,MOSI: 0x08;  MISO: 0x00
5.175577640000000,SPI,MOSI: 0x13;  MISO: 0x00
5.175838880000000,SPI,MOSI: 0x08;  MISO: 0x00
5.175918920000000,SPI,MOSI: 0xF3;  MISO: 0x00
5.176179800000000,SPI,MOSI: 0x08;  MISO: 0x00
5.176259840000000,SPI,MOSI: 0x45;  MISO: 0x00
5.176519780000000,SPI,MOSI: 0x08;  MISO: 0x00
5.176599800000000,SPI,MOSI: 0x16;  MISO: 0x00
5.176858460000000,SPI,MOSI: 0x08;  MISO: 0x00
5.176938500000000,SPI,MOSI: 0xEC;  MISO: 0x00
5.177198780000000,SPI,MOSI: 0x08;  MISO: 0x00
5.177540520000000,SPI,MOSI: 0x08;  MISO: 0x00
5.177620560000000,SPI,MOSI: 0xAC;  MISO: 0x00
5.177882780000000,SPI,MOSI: 0x08;  MISO: 0x00
5.177962800000000,SPI,MOSI: 0x01;  MISO: 0x00
5.178223080000000,SPI,MOSI: 0x08;  MISO: 0x00
5.178564400000000,SPI,MOSI: 0x08;  MISO: 0x00
5.178644420000000,SPI,MOSI: 0xD2;  MISO: 0x00
5.178902980000000,SPI,MOSI: 0x08;  MISO: 0x00
5.178983000000000,SPI,MOSI: 0x36;  MISO: 0x00
5.179240940000000,SPI,MOSI: 0x08;  MISO: 0x00
5.179320960000000,SPI,MOSI: 0xEF;  MISO: 0x00
5.179581460000000,SPI,MOSI: 0x08;  MISO: 0x00
5.179661500000000,SPI,MOSI: 0x4A;  MISO: 0x00
5.179935320000000,SPI,MOSI: 0x08;  MISO: 0x00
5.180015340000000,SPI,MOSI: 0x01;  MISO: 0x00
5.180285600000000,SPI,MOSI: 0x08;  MISO: 0x00
5.180626260000000,SPI,MOSI: 0x08;  MISO: 0x00
5.180706300000000,SPI,MOSI: 0xCF;  MISO: 0x00
5.180966540000000,SPI,MOSI: 0x08;  MISO: 0x00
5.181046560000000,SPI,MOSI: 0x70;  MISO: 0x00
5.181307940000000,SPI,MOSI: 0x08;  MISO: 0x00
5.181387980000000,SPI,MOSI: 0x03;  MISO: 0x00
5.181646220000000,SPI,MOSI: 0x08;  MISO: 0x00
5.181726240000000,SPI,MOSI: 0x00;  MISO: 0x00
5.182046540000000,SPI,MOSI: 0x08;  MISO: 0x00
5.182126580000000,SPI,MOSI: 0xBF;  MISO: 0x00
5.182395780000000,SPI,MOSI: 0x08;  MISO: 0x00
5.182475820000000,SPI,MOSI: 0xB9;  MISO: 0x00
5.182735380000000,SPI,MOSI: 0x08;  MISO: 0x00
5.182815400000000,SPI,MOSI: 0x7B;  MISO: 0x00
5.183127440000000,SPI,MOSI: 0x18;  MISO: 0x00
5.183419480000000,SPI,MOSI: 0x08;  MISO: 0x00
5.183499500000000,SPI,MOSI: 0x73;  MISO: 0x00
5.183761340000000,SPI,MOSI: 0x08;  MISO: 0x00
5.183841380000000,SPI,MOSI: 0x58;  MISO: 0x00
5.184099660000000,SPI,MOSI: 0x08;  MISO: 0x00
5.184179700000000,SPI,MOSI: 0x70;  MISO: 0x00
5.184467660000000,SPI,MOSI: 0x08;  MISO: 0x00
5.184547700000000,SPI,MOSI: 0xA0;  MISO: 0x00
5.184810700000000,SPI,MOSI: 0x08;  MISO: 0x00
5.184890720000000,SPI,MOSI: 0x87;  MISO: 0x00
5.185150540000000,SPI,MOSI: 0x08;  MISO: 0x00
5.185230560000000,SPI,MOSI: 0x9C;  MISO: 0x00
5.185491940000000,SPI,MOSI: 0x08;  MISO: 0x00
5.185571960000000,SPI,MOSI: 0x2C;  MISO: 0x00
5.185834720000000,SPI,MOSI: 0x08;  MISO: 0x00
5.185914760000000,SPI,MOSI: 0x3B;  MISO: 0x00
5.186179040000000,SPI,MOSI: 0x08;  MISO: 0x00
5.186259060000000,SPI,MOSI: 0x8D;  MISO: 0x00
5.186515700000000,SPI,MOSI: 0x08;  MISO: 0x00
5.186595740000000,SPI,MOSI: 0x77;  MISO: 0x00
5.186858280000000,SPI,MOSI: 0x88;  MISO: 0x00
5.186938320000000,SPI,MOSI: 0xCE;  MISO: 0x00
5.187198560000000,SPI,MOSI: 0x08;  MISO: 0x00
5.187278580000000,SPI,MOSI: 0x0F;  MISO: 0x00
5.187540700000000,SPI,MOSI: 0x88;  MISO: 0x00
5.187620740000000,SPI,MOSI: 0x52;  MISO: 0x00
5.187881100000000,SPI,MOSI: 0x08;  MISO: 0x00
5.187961120000000,SPI,MOSI: 0x5F;  MISO: 0x00
5.188220660000000,SPI,MOSI: 0x08;  MISO: 0x00
5.188561220000000,SPI,MOSI: 0x08;  MISO: 0x00
5.188641260000000,SPI,MOSI: 0x00;  MISO: 0x00
5.188904780000000,SPI,MOSI: 0x08;  MISO: 0x00
5.188984820000000,SPI,MOSI: 0x75;  MISO: 0x00
5.189245240000000,SPI,MOSI: 0x88;  MISO: 0x00
5.189325280000000,SPI,MOSI: 0xF9;  MISO: 0x00
5.189586700000000,SPI,MOSI: 0x08;  MISO: 0x00
5.189666740000000,SPI,MOSI: 0xAD;  MISO: 0x00
5.189927060000000,SPI,MOSI: 0x08;  MISO: 0x00
5.190007080000000,SPI,MOSI: 0xA2;  MISO: 0x00
5.190268520000000,SPI,MOSI: 0x08;  MISO: 0x00
5.190348560000000,SPI,MOSI: 0xB9;  MISO: 0x00
5.190609220000000,SPI,MOSI: 0x08;  MISO: 0x00
5.190689240000000,SPI,MOSI: 0x80;  MISO: 0x00
5.190948560000000,SPI,MOSI: 0x08;  MISO: 0x00
5.191028580000000,SPI,MOSI: 0x55;  MISO: 0x00
5.191288940000000,SPI,MOSI: 0x08;  MISO: 0x00
5.191368980000000,SPI,MOSI: 0xDF;  MISO: 0x00
5.191679520000000,SPI,MOSI: 0x08;  MISO: 0x00
5.191967720000000,SPI,MOSI: 0x08;  MISO: 0x00
5.192047760000000,SPI,MOSI: 0xBF;  MISO: 0x00
5.192309300000000,SPI,MOSI: 0x08;  MISO: 0x00
5.192389340000000,SPI,MOSI: 0x5F;  MISO: 0x00
5.192650560000000,SPI,MOSI: 0x08;  MISO: 0x00
5.192730580000000,SPI,MOSI: 0x4D;  MISO: 0x00
5.192991660000000,SPI,MOSI: 0x08;  MISO: 0x00
5.193071680000000,SPI,MOSI: 0x2A;  MISO: 0x00
5.193333060000000,SPI,MOSI: 0x08;  MISO: 0x00
5.193413100000000,SPI,MOSI: 0x2B;  MISO: 0x00
5.193671400000000,SPI,MOSI: 0x08;  MISO: 0x00
5.193751420000000,SPI,MOSI: 0x81;  MISO: 0x00
5.194013460000000,SPI,MOSI: 0x08;  MISO: 0x00
5.194093480000000,SPI,MOSI: 0xE2;  MISO: 0x00
5.194709880000000,SPI,MOSI: 0x08;  MISO: 0x00
5.194789920000000,SPI,MOSI: 0xF0;  MISO: 0x00
5.195055660000000,SPI,MOSI: 0x08;  MISO: 0x00
5.195135680000000,SPI,MOSI: 0x79;  MISO: 0x00
5.195398020000000,SPI,MOSI: 0x08;  MISO: 0x00
5.195478060000000,SPI,MOSI: 0xAB;  MISO: 0x00
5.195740760000000,SPI,MOSI: 0x08;  MISO: 0x00
5.195820780000000,SPI,MOSI: 0x71;  MISO: 0x00
5.196080940000000,SPI,MOSI: 0x08;  MISO: 0x00
5.196421040000000,SPI,MOSI: 0x08;  MISO: 0x00
5.196501080000000,SPI,MOSI: 0xA8;  MISO: 0x00
5.196759680000000,SPI,MOSI: 0x08;  MISO: 0x00
5.196839700000000,SPI,MOSI: 0x3C;  MISO: 0x00
5.197099780000000,SPI,MOSI: 0x08;  MISO: 0x00
5.197179800000000,SPI,MOSI: 0x28;  MISO: 0x00
5.197440500000000,SPI,MOSI: 0x08;  MISO: 0x00
5.197520540000000,SPI,MOSI: 0xD9;  MISO: 0x00
5.197779580000000,SPI,MOSI: 0x08;  MISO: 0x00
5.198120000000000,SPI,MOSI: 0x08;  MISO: 0x00
5.198200020000000,SPI,MOSI: 0x77;  MISO: 0x00
5.198460440000000,SPI,MOSI: 0x08;  MISO: 0x00
5.198540460000000,SPI,MOSI: 0xF3;  MISO: 0x00
5.198802300000000,SPI,MOSI: 0x08;  MISO: 0x00
5.199143880000000,SPI,MOSI: 0x08;  MISO: 0x00
5.199223900000000,SPI,MOSI: 0xCD;  MISO: 0x00
5.199484560000000,SPI,MOSI: 0x08;  MISO: 0x00
5.199564580000000,SPI,MOSI: 0x21;  MISO: 0x00
5.199824220000000,SPI,MOSI: 0x08;  MISO: 0x00
5.199904240000000,SPI,MOSI: 0x2A;  MISO: 0x00
5.200164760000000,SPI,MOSI: 0x08;  MISO: 0x00
5.200244780000000,SPI,MOSI: 0xC9;  MISO: 0x00
5.200507600000000,SPI,MOSI: 0x08;  MISO: 0x00
5.200587620000000,SPI,MOSI: 0x03;  MISO: 0x00
5.200848420000000,SPI,MOSI: 0x08;  MISO: 0x00
5.200928440000000,SPI,MOSI: 0xD8;  MISO: 0x00
5.201186340000000,SPI,MOSI: 0x08;  MISO: 0x00
5.201527800000000,SPI,MOSI: 0x08;  MISO: 0x00
5.201607820000000,SPI,MOSI: 0xF1;  MISO: 0x00
5.201868320000000,SPI,MOSI: 0x08;  MISO: 0x00
5.201948340000000,SPI,MOSI: 0xC2;  MISO: 0x00
5.202209360000000,SPI,MOSI: 0x08;  MISO: 0x00
5.202289400000000,SPI,MOSI: 0x68;  MISO: 0x00
5.202548760000000,SPI,MOSI: 0x08;  MISO: 0x00
5.202628780000000,SPI,MOSI: 0x63;  MISO: 0x00
5.202889220000000,SPI,MOSI: 0x08;  MISO: 0x00
5.202969240000000,SPI,MOSI: 0xC4;  MISO: 0x00
5.203231780000000,SPI,MOSI: 0x08;  MISO: 0x00
5.203311820000000,SPI,MOSI: 0xCC;  MISO: 0x00
5.203571880000000,SPI,MOSI: 0x08;  MISO: 0x00
5.203651900000000,SPI,MOSI: 0x05;  MISO: 0x00
5.203912880000000,SPI,MOSI: 0x08;  MISO: 0x00
5.203992900000000,SPI,MOSI: 0x66;  MISO: 0x00
5.204325960000000,SPI,MOSI: 0x08;  MISO: 0x00
5.204406000000000,SPI,MOSI: 0x78;  MISO: 0x00
5.204663580000000,SPI,MOSI: 0x08;  MISO: 0x00
5.204743600000000,SPI,MOSI: 0xD9;  MISO: 0x00
5.205003260000000,SPI,MOSI: 0x08;  MISO: 0x00
5.205083300000000,SPI,MOSI: 0x41;  MISO: 0x00
5.205344520000000,SPI,MOSI: 0x08;  MISO: 0x00
5.205424560000000,SPI,MOSI: 0x22;  MISO: 0x00
5.205685920000000,SPI,MOSI: 0x08;  MISO: 0x00
5.205765960000000,SPI,MOSI: 0x5E;  MISO: 0x00
5.206027120000000,SPI,MOSI: 0x08;  MISO: 0x00
5.206107140000000,SPI,MOSI: 0x90;  MISO: 0x00
5.206369760000000,SPI,MOSI: 0x08;  MISO: 0x00
5.206449780000000,SPI,MOSI: 0xC1;  MISO: 0x00
5.206714060000000,SPI,MOSI: 0x08;  MISO: 0x00
5.206794080000000,SPI,MOSI: 0xB5;  MISO: 0x00
5.207055920000000,SPI,MOSI: 0x08;  MISO: 0x00
5.207135960000000,SPI,MOSI: 0x8F;  MISO: 0x00
5.207397440000000,SPI,MOSI: 0x08;  MISO: 0x00
5.207477460000000,SPI,MOSI: 0xB1;  MISO: 0x00
5.207737780000000,SPI,MOSI: 0x08;  MISO: 0x00
5.207817820000000,SPI,MOSI: 0xF7;  MISO: 0x00
5.208078540000000,SPI,MOSI: 0x08;  MISO: 0x00
5.208158580000000,SPI,MOSI: 0x1F;  MISO: 0x00
5.208418360000000,SPI,MOSI: 0x08;  MISO: 0x00
5.208498400000000,SPI,MOSI: 0x8D;  MISO: 0x00
5.208758880000000,SPI,MOSI: 0x08;  MISO: 0x00
5.208838900000000,SPI,MOSI: 0xDE;  MISO: 0x00
5.209098840000000,SPI,MOSI: 0x08;  MISO: 0x00
5.209178860000000,SPI,MOSI: 0x9A;  MISO: 0x00
5.209439940000000,SPI,MOSI: 0x08;  MISO: 0x00
5.209519960000000,SPI,MOSI: 0xEB;  MISO: 0x00
5.209780720000000,SPI,MOSI: 0x08;  MISO: 0x00
5.209860760000000,SPI,MOSI: 0xAE;  MISO: 0x00
5.210198240000000,SPI,MOSI: 0x08;  MISO: 0x00
5.210278280000000,SPI,MOSI: 0xD6;  MISO: 0x00
5.210620400000000,SPI,MOSI: 0x08;  MISO: 0x00
5.210700440000000,SPI,MOSI: 0x79;  MISO: 0x00
5.210963480000000,SPI,MOSI: 0x08;  MISO: 0x00
5.211043500000000,SPI,MOSI: 0xDA;  MISO: 0x00
5.211303600000000,SPI,MOSI: 0x08;  MISO: 0x00
5.211383640000000,SPI,MOSI: 0xF6;  MISO: 0x00
5.211642760000000,SPI,MOSI: 0x08;  MISO: 0x00
5.211722780000000,SPI,MOSI: 0x14;  MISO: 0x00
5.211983500000000,SPI,MOSI: 0x08;  MISO: 0x00
5.212063520000000,SPI,MOSI: 0x43;  MISO: 0x00
5.212324120000000,SPI,MOSI: 0x08;  MISO: 0x00
5.212404160000000,SPI,MOSI: 0x60;  MISO: 0x00
5.212664380000000,SPI,MOSI: 0x08;  MISO: 0x00
5.212744420000000,SPI,MOSI: 0xF2;  MISO: 0x00
5.213004240000000,SPI,MOSI: 0x08;  MISO: 0x00
5.213084280000000,SPI,MOSI: 0x25;  MISO: 0x00
5.213346200000000,SPI,MOSI: 0x08;  MISO: 0x00
5.213426220000000,SPI,MOSI: 0xC3;  MISO: 0x00
5.213687480000000,SPI,MOSI: 0x08;  MISO: 0x00
5.213767500000000,SPI,MOSI: 0x1C;  MISO: 0x00
5.214031200000000,SPI,MOSI: 0x08;  MISO: 0x00
5.214111240000000,SPI,MOSI: 0x5E;  MISO: 0x00
5.214475160000000,SPI,MOSI: 0x88;  MISO: 0x00
5.214555200000000,SPI,MOSI: 0x15;  MISO: 0x00
5.214818040000000,SPI,MOSI: 0x08;  MISO: 0x00
5.214898060000000,SPI,MOSI: 0x08;  MISO: 0x00
5.215158140000000,SPI,MOSI: 0x08;  MISO: 0x00
5.215238180000000,SPI,MOSI: 0x38;  MISO: 0x00
5.215501580000000,SPI,MOSI: 0x08;  MISO: 0x00
5.215581620000000,SPI,MOSI: 0x88;  MISO: 0x00
5.215843060000000,SPI,MOSI: 0x08;  MISO: 0x00
5.215923080000000,SPI,MOSI: 0x09;  MISO: 0x00
5.216186780000000,SPI,MOSI: 0x08;  MISO: 0x00
5.216266820000000,SPI,MOSI: 0x5C;  MISO: 0x00
5.216525720000000,SPI,MOSI: 0x08;  MISO: 0x00
5.216867860000000,SPI,MOSI: 0x88;  MISO: 0x00
5.216947900000000,SPI,MOSI: 0xEE;  MISO: 0x00
5.217207980000000,SPI,MOSI: 0x08;  MISO: 0x00
5.217288000000000,SPI,MOSI: 0x41;  MISO: 0x00
5.217549760000000,SPI,MOSI: 0x08;  MISO: 0x00
5.217629780000000,SPI,MOSI: 0x8D;  MISO: 0x00
5.217889860000000,SPI,MOSI: 0x08;  MISO: 0x00
5.217969880000000,SPI,MOSI: 0x54;  MISO: 0x00
5.218231440000000,SPI,MOSI: 0x08;  MISO: 0x00
5.218311460000000,SPI,MOSI: 0xB1;  MISO: 0x00
5.218571240000000,SPI,MOSI: 0x08;  MISO: 0x00
5.218914120000000,SPI,MOSI: 0x08;  MISO: 0x00
5.218994160000000,SPI,MOSI: 0x98;  MISO: 0x00
5.219256240000000,SPI,MOSI: 0x08;  MISO: 0x00
5.219336280000000,SPI,MOSI: 0xA8;  MISO: 0x00
5.219596600000000,SPI,MOSI: 0x08;  MISO: 0x00
5.219676620000000,SPI,MOSI: 0x0D;  MISO: 0x00
5.219940660000000,SPI,MOSI: 0x08;  MISO: 0x00
5.220284940000000,SPI,MOSI: 0x08;  MISO: 0x00
5.220364960000000,SPI,MOSI: 0x59;  MISO: 0x00
5.220625880000000,SPI,MOSI: 0x08;  MISO: 0x00
5.220705900000000,SPI,MOSI: 0x1C;  MISO: 0x00
5.220968500000000,SPI,MOSI: 0x08;  MISO: 0x00
5.221048520000000,SPI,MOSI: 0xD9;  MISO: 0x00
5.221308020000000,SPI,MOSI: 0x08;  MISO: 0x00
5.221648340000000,SPI,MOSI: 0x08;  MISO: 0x00
5.221728360000000,SPI,MOSI: 0x9D;  MISO: 0x00
5.221990260000000,SPI,MOSI: 0x08;  MISO: 0x00
5.222070280000000,SPI,MOSI: 0xF0;  MISO: 0x00
5.222332080000000,SPI,MOSI: 0x08;  MISO: 0x00
5.222412120000000,SPI,MOSI: 0xAE;  MISO: 0x00
5.222671840000000,SPI,MOSI: 0x08;  MISO: 0x00
5.222751880000000,SPI,MOSI: 0x1E;  MISO: 0x00
5.223011680000000,SPI,MOSI: 0x08;  MISO: 0x00
5.223091700000000,SPI,MOSI: 0xF8;  MISO: 0x00
5.223351580000000,SPI,MOSI: 0x08;  MISO: 0x00
5.223431620000000,SPI,MOSI: 0xB3;  MISO: 0x00
5.223694600000000,SPI,MOSI: 0x08;  MISO: 0x00
5.224034740000000,SPI,MOSI: 0x08;  MISO: 0x00
5.224114760000000,SPI,MOSI: 0x6D;  MISO: 0x00
5.224428360000000,SPI,MOSI: 0x08;  MISO: 0x00
5.224508400000000,SPI,MOSI: 0x6E;  MISO: 0x00
5.224768140000000,SPI,MOSI: 0x08;  MISO: 0x00
5.224848160000000,SPI,MOSI: 0x0C;  MISO: 0x00
5.225109700000000,SPI,MOSI: 0x08;  MISO: 0x00
5.225189740000000,SPI,MOSI: 0x3D;  MISO: 0x00
5.225448480000000,SPI,MOSI: 0x08;  MISO: 0x00
5.225528520000000,SPI,MOSI: 0x76;  MISO: 0x00
5.225788300000000,SPI,MOSI: 0x08;  MISO: 0x00
5.225868320000000,SPI,MOSI: 0xC6;  MISO: 0x00
5.226129320000000,SPI,MOSI: 0x08;  MISO: 0x00
5.226209340000000,SPI,MOSI: 0xAC;  MISO: 0x00
5.226468040000000,SPI,MOSI: 0x08;  MISO: 0x00
5.226548060000000,SPI,MOSI: 0x2E;  MISO: 0x00
5.226806240000000,SPI,MOSI: 0x08;  MISO: 0x00
5.226886280000000,SPI,MOSI: 0xFF;  MISO: 0x00
5.227150700000000,SPI,MOSI: 0x08;  MISO: 0x00
5.227230720000000,SPI,MOSI: 0x8E;  MISO: 0x00
5.227490180000000,SPI,MOSI: 0x08;  MISO: 0x00
5.227570200000000,SPI,MOSI: 0x5D;  MISO: 0x00
5.227832780000000,SPI,MOSI: 0x08;  MISO: 0x00
5.227912800000000,SPI,MOSI: 0x7B;  MISO: 0x00
5.228174220000000,SPI,MOSI: 0x08;  MISO: 0x00
5.228254240000000,SPI,MOSI: 0x8E;  MISO: 0x00
5.228514380000000,SPI,MOSI: 0x08;  MISO: 0x00
5.228594420000000,SPI,MOSI: 0x61;  MISO: 0x00
5.228857080000000,SPI,MOSI: 0x08;  MISO: 0x00
5.228937120000000,SPI,MOSI: 0xEE;  MISO: 0x00
5.229199200000000,SPI,MOSI: 0x08;  MISO: 0x00
5.229279220000000,SPI,MOSI: 0xCE;  MISO: 0x00
5.229540400000000,SPI,MOSI: 0x08;  MISO: 0x00
5.229620420000000,SPI,MOSI: 0x33;  MISO: 0x00
5.229881300000000,SPI,MOSI: 0x08;  MISO: 0x00
5.229961340000000,SPI,MOSI: 0xD8;  MISO: 0x00
5.230222020000000,SPI,MOSI: 0x08;  MISO: 0x00
5.230302040000000,SPI,MOSI: 0xB2;  MISO: 0x00
5.230561760000000,SPI,MOSI: 0x08;  MISO: 0x00
5.230641800000000,SPI,MOSI: 0x32;  MISO: 0x00
5.230903460000000,SPI,MOSI: 0x08;  MISO: 0x00
5.230983480000000,SPI,MOSI: 0x9E;  MISO: 0x00
5.231244760000000,SPI,MOSI: 0x08;  MISO: 0x00
5.231324800000000,SPI,MOSI: 0x29;  MISO: 0x00
5.231583900000000,SPI,MOSI: 0x08;  MISO: 0x00
5.231663920000000,SPI,MOSI: 0x5D;  MISO: 0x00
5.231926520000000,SPI,MOSI: 0x08;  MISO: 0x00
5.232006560000000,SPI,MOSI: 0x49;  MISO: 0x00
5.232265920000000,SPI,MOSI: 0x08;  MISO: 0x00
5.232345940000000,SPI,MOSI: 0x33;  MISO: 0x00
5.232605360000000,SPI,MOSI: 0x08;  MISO: 0x00
5.232685400000000,SPI,MOSI: 0x0E;  MISO: 0x00
5.232945500000000,SPI,MOSI: 0x08;  MISO: 0x00
5.233025520000000,SPI,MOSI: 0xD0;  MISO: 0x00
5.233285560000000,SPI,MOSI: 0x08;  MISO: 0x00
5.233365600000000,SPI,MOSI: 0x63;  MISO: 0x00
5.233628300000000,SPI,MOSI: 0x08;  MISO: 0x00
5.233708320000000,SPI,MOSI: 0xE7;  MISO: 0x00
5.233972000000000,SPI,MOSI: 0x08;  MISO: 0x00
5.234052020000000,SPI,MOSI: 0xAD;  MISO: 0x00
5.234424020000000,SPI,MOSI: 0x08;  MISO: 0x00
5.234504060000000,SPI,MOSI: 0x0B;  MISO: 0x00
5.234751780000000,SPI,MOSI: 0x08;  MISO: 0x00
5.234831800000000,SPI,MOSI: 0xF8;  MISO: 0x00
5.235093480000000,SPI,MOSI: 0x08;  MISO: 0x00
5.235173500000000,SPI,MOSI: 0x00;  MISO: 0x00
5.235775080000000,SPI,MOSI: 0x08;  MISO: 0x00
5.235855100000000,SPI,MOSI: 0x3D;  MISO: 0x00
5.236114920000000,SPI,MOSI: 0x08;  MISO: 0x00
5.236194940000000,SPI,MOSI: 0xC0;  MISO: 0x00
5.236454540000000,SPI,MOSI: 0x08;  MISO: 0x00
5.236534580000000,SPI,MOSI: 0x11;  MISO: 0x00
5.236794580000000,SPI,MOSI: 0x88;  MISO: 0x00
5.236874620000000,SPI,MOSI: 0xEC;  MISO: 0x00
5.237136940000000,SPI,MOSI: 0x88;  MISO: 0x00
5.237216980000000,SPI,MOSI: 0x22;  MISO: 0x00
5.237476460000000,SPI,MOSI: 0x08;  MISO: 0x00
5.237556480000000,SPI,MOSI: 0x19;  MISO: 0x00
5.237817040000000,SPI,MOSI: 0x08;  MISO: 0x00
5.237897060000000,SPI,MOSI: 0xE4;  MISO: 0x00
5.238158140000000,SPI,MOSI: 0x08;  MISO: 0x00
5.238238180000000,SPI,MOSI: 0x3C;  MISO: 0x00
5.238500400000000,SPI,MOSI: 0x08;  MISO: 0x00
5.238580440000000,SPI,MOSI: 0x68;  MISO: 0x00
5.238842280000000,SPI,MOSI: 0x08;  MISO: 0x00
5.238922300000000,SPI,MOSI: 0x8E;  MISO: 0x00
5.239182300000000,SPI,MOSI: 0x08;  MISO: 0x00
5.239262320000000,SPI,MOSI: 0x03;  MISO: 0x00
5.239521460000000,SPI,MOSI: 0x08;  MISO: 0x00
5.239601480000000,SPI,MOSI: 0xEB;  MISO: 0x00
5.239861940000000,SPI,MOSI: 0x08;  MISO: 0x00
5.239941980000000,SPI,MOSI: 0x60;  MISO: 0x00
5.240205980000000,SPI,MOSI: 0x88;  MISO: 0x00
5.240286020000000,SPI,MOSI: 0x1C;  MISO: 0x00
5.240545060000000,SPI,MOSI: 0x08;  MISO: 0x00
5.240625080000000,SPI,MOSI: 0x0F;  MISO: 0x00
5.240889420000000,SPI,MOSI: 0x08;  MISO: 0x00
5.240969440000000,SPI,MOSI: 0x6B;  MISO: 0x00
5.241229200000000,SPI,MOSI: 0x08;  MISO: 0x00
5.241309240000000,SPI,MOSI: 0x6C;  MISO: 0x00
5.241571260000000,SPI,MOSI: 0x08;  MISO: 0x00
5.241651300000000,SPI,MOSI: 0x56;  MISO: 0x00
5.241912900000000,SPI,MOSI: 0x08;  MISO: 0x00
5.241992920000000,SPI,MOSI: 0xF2;  MISO: 0x00
5.242252380000000,SPI,MOSI: 0x08;  MISO: 0x00
5.242332400000000,SPI,MOSI: 0xF9;  MISO: 0x00
5.242593020000000,SPI,MOSI: 0x08;  MISO: 0x00
5.242673040000000,SPI,MOSI: 0x65;  MISO: 0x00
5.242934840000000,SPI,MOSI: 0x08;  MISO: 0x00
5.243014880000000,SPI,MOSI: 0x7A;  MISO: 0x00
5.243277280000000,SPI,MOSI: 0x08;  MISO: 0x00
5.243357300000000,SPI,MOSI: 0x08;  MISO: 0x00
5.243622740000000,SPI,MOSI: 0x08;  MISO: 0x00
5.243702760000000,SPI,MOSI: 0xA4;  MISO: 0x00
5.243961660000000,SPI,MOSI: 0x08;  MISO: 0x00
5.244041680000000,SPI,MOSI: 0x19;  MISO: 0x00
5.244372100000000,SPI,MOSI: 0x08;  MISO: 0x00
5.244452120000000,SPI,MOSI: 0x18;  MISO: 0x00
5.244701460000000,SPI,MOSI: 0x08;  MISO: 0x00
5.244781480000000,SPI,MOSI: 0xC3;  MISO: 0x00
5.245043100000000,SPI,MOSI: 0x08;  MISO: 0x00
5.245123140000000,SPI,MOSI: 0x56;  MISO: 0x00
5.245384380000000,SPI,MOSI: 0x08;  MISO: 0x00
5.245464420000000,SPI,MOSI: 0x38;  MISO: 0x00
5.245726880000000,SPI,MOSI: 0x08;  MISO: 0x00
5.245806900000000,SPI,MOSI: 0xAC;  MISO: 0x00
5.246065700000000,SPI,MOSI: 0x08;  MISO: 0x00
5.246145740000000,SPI,MOSI: 0xDF;  MISO: 0x00
5.246404900000000,SPI,MOSI: 0x08;  MISO: 0x00
5.246484940000000,SPI,MOSI: 0x86;  MISO: 0x00
5.246745240000000,SPI,MOSI: 0x08;  MISO: 0x00
5.246825260000000,SPI,MOSI: 0xF0;  MISO: 0x00
5.247089420000000,SPI,MOSI: 0x08;  MISO: 0x00
5.247169460000000,SPI,MOSI: 0xC2;  MISO: 0x00
5.247430720000000,SPI,MOSI: 0x88;  MISO: 0x00
5.247510760000000,SPI,MOSI: 0x9E;  MISO: 0x00
5.247771960000000,SPI,MOSI: 0x88;  MISO: 0x00
5.247852000000000,SPI,MOSI: 0x01;  MISO: 0x00
5.248162760000000,SPI,MOSI: 0x06;  MISO: 0x00
5.248453500000000,SPI,MOSI: 0x08;  MISO: 0x00
5.248533520000000,SPI,MOSI: 0x3F;  MISO: 0x00
5.248794900000000,SPI,MOSI: 0x08;  MISO: 0x00
5.248874940000000,SPI,MOSI: 0xFC;  MISO: 0x00
5.249133680000000,SPI,MOSI: 0x08;  MISO: 0x00
5.249213700000000,SPI,MOSI: 0xD7;  MISO: 0x00
5.249522860000000,SPI,MOSI: 0x0A;  MISO: 0x00
5.249812380000000,SPI,MOSI: 0x08;  MISO: 0x00
5.249892400000000,SPI,MOSI: 0xF9;  MISO: 0x00
5.250155200000000,SPI,MOSI: 0x08;  MISO: 0x00
5.250235220000000,SPI,MOSI: 0x7F;  MISO: 0x00
5.250497040000000,SPI,MOSI: 0x08;  MISO: 0x00
5.250577080000000,SPI,MOSI: 0xB3;  MISO: 0x00
5.250839660000000,SPI,MOSI: 0x08;  MISO: 0x00
5.250919680000000,SPI,MOSI: 0xB3;  MISO: 0x00
5.251181680000000,SPI,MOSI: 0x08;  MISO: 0x00
5.251261720000000,SPI,MOSI: 0x90;  MISO: 0x00
5.251524100000000,SPI,MOSI: 0x08;  MISO: 0x00
5.251864840000000,SPI,MOSI: 0x08;  MISO: 0x00
5.251944880000000,SPI,MOSI: 0x7F;  MISO: 0x00
5.252206140000000,SPI,MOSI: 0x08;  MISO: 0x00
5.252286160000000,SPI,MOSI: 0x00;  MISO: 0x00
5.252547420000000,SPI,MOSI: 0x08;  MISO: 0x00
5.252627460000000,SPI,MOSI: 0x70;  MISO: 0x00
5.252888640000000,SPI,MOSI: 0x08;  MISO: 0x00
5.252968680000000,SPI,MOSI: 0x80;  MISO: 0x00
5.253229260000000,SPI,MOSI: 0x08;  MISO: 0x00
5.253309300000000,SPI,MOSI: 0x91;  MISO: 0x00
5.253570920000000,SPI,MOSI: 0x08;  MISO: 0x00
5.253650940000000,SPI,MOSI: 0x68;  MISO: 0x00
5.253912220000000,SPI,MOSI: 0x08;  MISO: 0x00
5.253992260000000,SPI,MOSI: 0x48;  MISO: 0x00
5.254347120000000,SPI,MOSI: 0x08;  MISO: 0x00
5.254427160000000,SPI,MOSI: 0x0B;  MISO: 0x00
5.254683700000000,SPI,MOSI: 0x08;  MISO: 0x00
5.254763720000000,SPI,MOSI: 0x03;  MISO: 0x00
5.255025620000000,SPI,MOSI: 0x88;  MISO: 0x00
5.255105660000000,SPI,MOSI: 0x13;  MISO: 0x00
5.255367940000000,SPI,MOSI: 0x08;  MISO: 0x00
5.255447980000000,SPI,MOSI: 0xF3;  MISO: 0x00
5.255709120000000,SPI,MOSI: 0x08;  MISO: 0x00
5.255789160000000,SPI,MOSI: 0x45;  MISO: 0x00
5.256050860000000,SPI,MOSI: 0x08;  MISO: 0x00
5.256130880000000,SPI,MOSI: 0x16;  MISO: 0x00
5.256391080000000,SPI,MOSI: 0x08;  MISO: 0x00
5.256471100000000,SPI,MOSI: 0xEC;  MISO: 0x00
5.256729620000000,SPI,MOSI: 0x08;  MISO: 0x00
5.256809640000000,SPI,MOSI: 0xD4;  MISO: 0x00
5.257069460000000,SPI,MOSI: 0x08;  MISO: 0x00
5.257149480000000,SPI,MOSI: 0xAC;  MISO: 0x00
5.257408340000000,SPI,MOSI: 0x08;  MISO: 0x00
5.257488380000000,SPI,MOSI: 0x01;  MISO: 0x00
5.257749780000000,SPI,MOSI: 0x08;  MISO: 0x00
5.257829800000000,SPI,MOSI: 0x71;  MISO: 0x00
5.258090380000000,SPI,MOSI: 0x08;  MISO: 0x00
5.258170400000000,SPI,MOSI: 0xD2;  MISO: 0x00
5.258432680000000,SPI,MOSI: 0x08;  MISO: 0x00
5.258512700000000,SPI,MOSI: 0x36;  MISO: 0x00
5.258773000000000,SPI,MOSI: 0x08;  MISO: 0x00
5.258853020000000,SPI,MOSI: 0xEF;  MISO: 0x00
5.259113760000000,SPI,MOSI: 0x08;  MISO: 0x00
5.259193780000000,SPI,MOSI: 0x4A;  MISO: 0x00
5.259453180000000,SPI,MOSI: 0x08;  MISO: 0x00
5.259533220000000,SPI,MOSI: 0x01;  MISO: 0x00
5.259795480000000,SPI,MOSI: 0x08;  MISO: 0x00
5.259875500000000,SPI,MOSI: 0xFA;  MISO: 0x00
5.260137420000000,SPI,MOSI: 0x08;  MISO: 0x00
5.260217460000000,SPI,MOSI: 0xCF;  MISO: 0x00
5.260477380000000,SPI,MOSI: 0x08;  MISO: 0x00
5.260557420000000,SPI,MOSI: 0x70;  MISO: 0x00
5.260818060000000,SPI,MOSI: 0x08;  MISO: 0x00
5.260898080000000,SPI,MOSI: 0x03;  MISO: 0x00
5.261159180000000,SPI,MOSI: 0x08;  MISO: 0x00
5.261239220000000,SPI,MOSI: 0x00;  MISO: 0x00
5.261498080000000,SPI,MOSI: 0x08;  MISO: 0x00
5.261578100000000,SPI,MOSI: 0xBF;  MISO: 0x00
5.261838140000000,SPI,MOSI: 0x08;  MISO: 0x00
5.261918160000000,SPI,MOSI: 0xB9;  MISO: 0x00
5.262178700000000,SPI,MOSI: 0x08;  MISO: 0x00
5.262258720000000,SPI,MOSI: 0x7B;  MISO: 0x00
5.262521960000000,SPI,MOSI: 0x08;  MISO: 0x00
5.262601980000000,SPI,MOSI: 0xC7;  MISO: 0x00
5.262863500000000,SPI,MOSI: 0x08;  MISO: 0x00
5.262943520000000,SPI,MOSI: 0x73;  MISO: 0x00
5.263203700000000,SPI,MOSI: 0x08;  MISO: 0x00
5.263283720000000,SPI,MOSI: 0x58;  MISO: 0x00
5.263546420000000,SPI,MOSI: 0x88;  MISO: 0x00
5.263626460000000,SPI,MOSI: 0x70;  MISO: 0x00
5.263888040000000,SPI,MOSI: 0x08;  MISO: 0x00
5.263968080000000,SPI,MOSI: 0xA0;  MISO: 0x00
5.264283120000000,SPI,MOSI: 0x08;  MISO: 0x00
5.264363160000000,SPI,MOSI: 0x87;  MISO: 0x00
5.264627560000000,SPI,MOSI: 0x08;  MISO: 0x00
5.264707580000000,SPI,MOSI: 0x9C;  MISO: 0x00
5.264968600000000,SPI,MOSI: 0x08;  MISO: 0x00
5.265048620000000,SPI,MOSI: 0x2C;  MISO: 0x00
5.265309880000000,SPI,MOSI: 0x08;  MISO: 0x00
5.265389920000000,SPI,MOSI: 0x3B;  MISO: 0x00
5.265650300000000,SPI,MOSI: 0x08;  MISO: 0x00
5.265730320000000,SPI,MOSI: 0x8D;  MISO: 0x00
5.265990140000000,SPI,MOSI: 0x08;  MISO: 0x00
5.266070160000000,SPI,MOSI: 0x77;  MISO: 0x00
5.266329540000000,SPI,MOSI: 0x08;  MISO: 0x00
5.266409580000000,SPI,MOSI: 0xCE;  MISO: 0x00
5.266671060000000,SPI,MOSI: 0x08;  MISO: 0x00
5.266751100000000,SPI,MOSI: 0x0F;  MISO: 0x00
5.267098700000000,SPI,MOSI: 0x08;  MISO: 0x00
5.267178720000000,SPI,MOSI: 0x52;  MISO: 0x00
5.267452960000000,SPI,MOSI: 0x08;  MISO: 0x00
5.267532980000000,SPI,MOSI: 0x5F;  MISO: 0x00
5.267795560000000,SPI,MOSI: 0x08;  MISO: 0x00
5.267875600000000,SPI,MOSI: 0xA2;  MISO: 0x00
5.268139800000000,SPI,MOSI: 0x08;  MISO: 0x00
5.268219840000000,SPI,MOSI: 0x00;  MISO: 0x00
5.268479660000000,SPI,MOSI: 0x08;  MISO: 0x00
5.268559680000000,SPI,MOSI: 0x75;  MISO: 0x00
5.268819160000000,SPI,MOSI: 0x08;  MISO: 0x00
5.268899180000000,SPI,MOSI: 0xF9;  MISO: 0x00
5.269160840000000,SPI,MOSI: 0x08;  MISO: 0x00
5.269240880000000,SPI,MOSI: 0xAD;  MISO: 0x00
5.269500420000000,SPI,MOSI: 0x08;  MISO: 0x00
5.269580440000000,SPI,MOSI: 0xA2;  MISO: 0x00
5.269838700000000,SPI,MOSI: 0x08;  MISO: 0x00
5.269918720000000,SPI,MOSI: 0xB9;  MISO: 0x00
5.270178920000000,SPI,MOSI: 0x08;  MISO: 0x00
5.270258940000000,SPI,MOSI: 0x80;  MISO: 0x00
5.270518040000000,SPI,MOSI: 0x88;  MISO: 0x00
5.270598080000000,SPI,MOSI: 0x55;  MISO: 0x00
5.270912360000000,SPI,MOSI: 0x1B;  MISO: 0x00
5.271200500000000,SPI,MOSI: 0x08;  MISO: 0x00
5.271280540000000,SPI,MOSI: 0x41;  MISO: 0x00
5.271542140000000,SPI,MOSI: 0x08;  MISO: 0x00
5.271622160000000,SPI,MOSI: 0xBF;  MISO: 0x00
5.271886520000000,SPI,MOSI: 0x08;  MISO: 0x00
5.271966560000000,SPI,MOSI: 0x5F;  MISO: 0x00
5.272228240000000,SPI,MOSI: 0x08;  MISO: 0x00
5.272308260000000,SPI,MOSI: 0x4D;  MISO: 0x00
5.272568960000000,SPI,MOSI: 0x08;  MISO: 0x00
5.272958800000000,SPI,MOSI: 0x05;  MISO: 0x00
5.273248920000000,SPI,MOSI: 0x08;  MISO: 0x00
5.273328940000000,SPI,MOSI: 0x81;  MISO: 0x00
5.273590200000000,SPI,MOSI: 0x08;  MISO: 0x00
5.273670220000000,SPI,MOSI: 0xE2;  MISO: 0x00
5.273930360000000,SPI,MOSI: 0x08;  MISO: 0x00
5.274010380000000,SPI,MOSI: 0xF0;  MISO: 0x00
5.274378360000000,SPI,MOSI: 0x08;  MISO: 0x00
5.274710680000000,SPI,MOSI: 0x08;  MISO: 0x00
5.274790700000000,SPI,MOSI: 0xAB;  MISO: 0x00
5.275053720000000,SPI,MOSI: 0x08;  MISO: 0x00
5.275133740000000,SPI,MOSI: 0x71;  MISO: 0x00
5.275393780000000,SPI,MOSI: 0x08;  MISO: 0x00
5.276073860000000,SPI,MOSI: 0x08;  MISO: 0x00
5.276153900000000,SPI,MOSI: 0x3C;  MISO: 0x00
5.276412740000000,SPI,MOSI: 0x08;  MISO: 0x00
5.276492760000000,SPI,MOSI: 0x28;  MISO: 0x00
5.276751900000000,SPI,MOSI: 0x08;  MISO: 0x00
5.276831940000000,SPI,MOSI: 0xD9;  MISO: 0x00
5.277089540000000,SPI,MOSI: 0x08;  MISO: 0x00
5.277169560000000,SPI,MOSI: 0x45;  MISO: 0x00
5.277428180000000,SPI,MOSI: 0x08;  MISO: 0x00
5.277508220000000,SPI,MOSI: 0x77;  MISO: 0x00
5.277769080000000,SPI,MOSI: 0x08;  MISO: 0x00
5.277849100000000,SPI,MOSI: 0xF3;  MISO: 0x00
5.278110480000000,SPI,MOSI: 0x08;  MISO: 0x00
5.278190500000000,SPI,MOSI: 0xB0;  MISO: 0x00
5.278451180000000,SPI,MOSI: 0x08;  MISO: 0x00
5.278531200000000,SPI,MOSI: 0xCD;  MISO: 0x00
5.278790800000000,SPI,MOSI: 0x08;  MISO: 0x00
5.278870840000000,SPI,MOSI: 0x21;  MISO: 0x00
5.279132860000000,SPI,MOSI: 0x08;  MISO: 0x00
5.279212880000000,SPI,MOSI: 0x2A;  MISO: 0x00
5.279473860000000,SPI,MOSI: 0x08;  MISO: 0x00
5.279553880000000,SPI,MOSI: 0xC9;  MISO: 0x00
5.279815620000000,SPI,MOSI: 0x08;  MISO: 0x00
5.279895640000000,SPI,MOSI: 0x03;  MISO: 0x00
5.280155040000000,SPI,MOSI: 0x08;  MISO: 0x00
5.280235060000000,SPI,MOSI: 0xD8;  MISO: 0x00
5.280494200000000,SPI,MOSI: 0x08;  MISO: 0x00
5.280574220000000,SPI,MOSI: 0x4E;  MISO: 0x00
5.280835300000000,SPI,MOSI: 0x08;  MISO: 0x00
5.280915340000000,SPI,MOSI: 0xF1;  MISO: 0x00
5.281174160000000,SPI,MOSI: 0x88;  MISO: 0x00
5.281254200000000,SPI,MOSI: 0xC2;  MISO: 0x00
5.281515460000000,SPI,MOSI: 0x08;  MISO: 0x00
5.281595480000000,SPI,MOSI: 0x68;  MISO: 0x00
5.281856580000000,SPI,MOSI: 0x88;  MISO: 0x00
5.281936620000000,SPI,MOSI: 0x63;  MISO: 0x00
5.282197280000000,SPI,MOSI: 0x08;  MISO: 0x00
5.282549300000000,SPI,MOSI: 0x08;  MISO: 0x00
5.282629340000000,SPI,MOSI: 0xCC;  MISO: 0x00
5.282889600000000,SPI,MOSI: 0x08;  MISO: 0x00
5.282969620000000,SPI,MOSI: 0x05;  MISO: 0x00
5.283228400000000,SPI,MOSI: 0x08;  MISO: 0x00
5.283569460000000,SPI,MOSI: 0x08;  MISO: 0x00
5.283649480000000,SPI,MOSI: 0x78;  MISO: 0x00
5.283910620000000,SPI,MOSI: 0x08;  MISO: 0x00
5.283990660000000,SPI,MOSI: 0xD9;  MISO: 0x00
5.284358460000000,SPI,MOSI: 0x08;  MISO: 0x00
5.284438500000000,SPI,MOSI: 0x41;  MISO: 0x00
5.284724020000000,SPI,MOSI: 0x08;  MISO: 0x00
5.284804040000000,SPI,MOSI: 0x22;  MISO: 0x00
5.285064180000000,SPI,MOSI: 0x08;  MISO: 0x00
5.285403680000000,SPI,MOSI: 0x88;  MISO: 0x00
5.285483720000000,SPI,MOSI: 0x90;  MISO: 0x00
5.285745380000000,SPI,MOSI: 0x08;  MISO: 0x00
5.285825400000000,SPI,MOSI: 0xC1;  MISO: 0x00
5.286085460000000,SPI,MOSI: 0x08;  MISO: 0x00
5.286165480000000,SPI,MOSI: 0xB5;  MISO: 0x00
5.286425440000000,SPI,MOSI: 0x08;  MISO: 0x00
5.286505460000000,SPI,MOSI: 0x8F;  MISO: 0x00
5.286766740000000,SPI,MOSI: 0x08;  MISO: 0x00
5.286846780000000,SPI,MOSI: 0xB1;  MISO: 0x00
5.287103180000000,SPI,MOSI: 0x08;  MISO: 0x00
5.287183220000000,SPI,MOSI: 0xF7;  MISO: 0x00
5.287441320000000,SPI,MOSI: 0x08;  MISO: 0x00
5.287521340000000,SPI,MOSI: 0x1F;  MISO: 0x00
5.287780960000000,SPI,MOSI: 0x08;  MISO: 0x00
5.287861000000000,SPI,MOSI: 0x8D;  MISO: 0x00
5.288123600000000,SPI,MOSI: 0x08;  MISO: 0x00
5.288203620000000,SPI,MOSI: 0xDE;  MISO: 0x00
5.288464540000000,SPI,MOSI: 0x08;  MISO: 0x00
5.288805000000000,SPI,MOSI: 0x08;  MISO: 0x00
5.288885020000000,SPI,MOSI: 0xEB;  MISO: 0x00
5.289144300000000,SPI,MOSI: 0x88;  MISO: 0x00
5.289224340000000,SPI,MOSI: 0xAE;  MISO: 0x00
5.289533480000000,SPI,MOSI: 0x1A;  MISO: 0x00
5.289823440000000,SPI,MOSI: 0x08;  MISO: 0x00
5.289903460000000,SPI,MOSI: 0x79;  MISO: 0x00
5.290164540000000,SPI,MOSI: 0x08;  MISO: 0x00
5.290244580000000,SPI,MOSI: 0xDA;  MISO: 0x00
5.290507020000000,SPI,MOSI: 0x08;  MISO: 0x00
5.290587040000000,SPI,MOSI: 0xF6;  MISO: 0x00
5.290849040000000,SPI,MOSI: 0x08;  MISO: 0x00
5.290929060000000,SPI,MOSI: 0x14;  MISO: 0x00
5.291190800000000,SPI,MOSI: 0x88;  MISO: 0x00
5.291270840000000,SPI,MOSI: 0x43;  MISO: 0x00
5.291532480000000,SPI,MOSI: 0x08;  MISO: 0x00
5.291612500000000,SPI,MOSI: 0x60;  MISO: 0x00
5.291874480000000,SPI,MOSI: 0x08;  MISO: 0x00
5.291954500000000,SPI,MOSI: 0xF2;  MISO: 0x00
5.292214660000000,SPI,MOSI: 0x08;  MISO: 0x00
5.292294700000000,SPI,MOSI: 0x25;  MISO: 0x00
5.292558660000000,SPI,MOSI: 0x08;  MISO: 0x00
5.292638680000000,SPI,MOSI: 0xC3;  MISO: 0x00
5.292899660000000,SPI,MOSI: 0x08;  MISO: 0x00
5.292979680000000,SPI,MOSI: 0x1C;  MISO: 0x00
5.293241820000000,SPI,MOSI: 0x08;  MISO: 0x00
5.293321860000000,SPI,MOSI: 0x5E;  MISO: 0x00
5.293586060000000,SPI,MOSI: 0x08;  MISO: 0x00
5.293666080000000,SPI,MOSI: 0x15;  MISO: 0x00
5.293927420000000,SPI,MOSI: 0x08;  MISO: 0x00
5.294007460000000,SPI,MOSI: 0x08;  MISO: 0x00
5.294398720000000,SPI,MOSI: 0x08;  MISO: 0x00
5.294478740000000,SPI,MOSI: 0x38;  MISO: 0x00
5.294733140000000,SPI,MOSI: 0x08;  MISO: 0x00
5.294813160000000,SPI,MOSI: 0x88;  MISO: 0x00
5.295079080000000,SPI,MOSI: 0x08;  MISO: 0x00
5.295159100000000,SPI,MOSI: 0x09;  MISO: 0x00
5.295418220000000,SPI,MOSI: 0x08;  MISO: 0x00
5.295759100000000,SPI,MOSI: 0x08;  MISO: 0x00
5.295839140000000,SPI,MOSI: 0x34;  MISO: 0x00
5.296099920000000,SPI,MOSI: 0x08;  MISO: 0x00
5.296179940000000,SPI,MOSI: 0xEE;  MISO: 0x00
5.296438080000000,SPI,MOSI: 0x08;  MISO: 0x00
5.296518100000000,SPI,MOSI: 0x41;  MISO: 0x00
5.296780500000000,SPI,MOSI: 0x08;  MISO: 0x00
5.297120520000000,SPI,MOSI: 0x08;  MISO: 0x00
5.297200560000000,SPI,MOSI: 0x54;  MISO: 0x00
5.297460420000000,SPI,MOSI: 0x08;  MISO: 0x00
5.297540440000000,SPI,MOSI: 0xB1;  MISO: 0x00
5.297800940000000,SPI,MOSI: 0x08;  MISO: 0x00
5.297880960000000,SPI,MOSI: 0x48;  MISO: 0x00
5.298142080000000,SPI,MOSI: 0x08;  MISO: 0x00
5.298222100000000,SPI,MOSI: 0x98;  MISO: 0x00
5.298825240000000,SPI,MOSI: 0x08;  MISO: 0x00
5.298905260000000,SPI,MOSI: 0x0D;  MISO: 0x00
5.299164160000000,SPI,MOSI: 0x08;  MISO: 0x00
5.299244200000000,SPI,MOSI: 0x9F;  MISO: 0x00
5.299506140000000,SPI,MOSI: 0x08;  MISO: 0x00
5.299586160000000,SPI,MOSI: 0x59;  MISO: 0x00
5.299847900000000,SPI,MOSI: 0x08;  MISO: 0x00
5.299927940000000,SPI,MOSI: 0x1C;  MISO: 0x00
5.300187420000000,SPI,MOSI: 0x08;  MISO: 0x00
5.300267460000000,SPI,MOSI: 0xD9;  MISO: 0x00
5.300526520000000,SPI,MOSI: 0x08;  MISO: 0x00
5.300606560000000,SPI,MOSI: 0x0C;  MISO: 0x00
5.300869840000000,SPI,MOSI: 0x08;  MISO: 0x00
5.300949880000000,SPI,MOSI: 0x9D;  MISO: 0x00
5.301207120000000,SPI,MOSI: 0x08;  MISO: 0x00
5.301287160000000,SPI,MOSI: 0xF0;  MISO: 0x00
5.301551140000000,SPI,MOSI: 0x08;  MISO: 0x00
5.301631180000000,SPI,MOSI: 0xAE;  MISO: 0x00
5.301892520000000,SPI,MOSI: 0x08;  MISO: 0x00
5.301972540000000,SPI,MOSI: 0x1E;  MISO: 0x00
5.302233740000000,SPI,MOSI: 0x08;  MISO: 0x00
5.302313780000000,SPI,MOSI: 0xF8;  MISO: 0x00
5.302573280000000,SPI,MOSI: 0x08;  MISO: 0x00
5.302653300000000,SPI,MOSI: 0xB3;  MISO: 0x00
5.302915060000000,SPI,MOSI: 0x08;  MISO: 0x00
5.302995080000000,SPI,MOSI: 0xD5;  MISO: 0x00
5.303257180000000,SPI,MOSI: 0x08;  MISO: 0x00
5.303337200000000,SPI,MOSI: 0x6D;  MISO: 0x00
5.303596000000000,SPI,MOSI: 0x08;  MISO: 0x00
5.303676020000000,SPI,MOSI: 0x6E;  MISO: 0x00
5.303936000000000,SPI,MOSI: 0x08;  MISO: 0x00
5.304016020000000,SPI,MOSI: 0x0C;  MISO: 0x00
5.304338780000000,SPI,MOSI: 0x08;  MISO: 0x00
5.304418800000000,SPI,MOSI: 0x3D;  MISO: 0x00
5.304671800000000,SPI,MOSI: 0x08;  MISO: 0x00
5.304751820000000,SPI,MOSI: 0x76;  MISO: 0x00
5.305011660000000,SPI,MOSI: 0x08;  MISO: 0x00
5.305091700000000,SPI,MOSI: 0xC6;  MISO: 0x00
5.305353040000000,SPI,MOSI: 0x08;  MISO: 0x00
5.305433060000000,SPI,MOSI: 0xAC;  MISO: 0x00
5.305693700000000,SPI,MOSI: 0x08;  MISO: 0x00
5.305773720000000,SPI,MOSI: 0x2E;  MISO: 0x00
5.306035120000000,SPI,MOSI: 0x08;  MISO: 0x00
5.306115160000000,SPI,MOSI: 0xFF;  MISO: 0x00
5.306375140000000,SPI,MOSI: 0x08;  MISO: 0x00
5.306455160000000,SPI,MOSI: 0x8E;  MISO: 0x00
5.306716460000000,SPI,MOSI: 0x08;  MISO: 0x00
5.306796480000000,SPI,MOSI: 0x5D;  MISO: 0x00
5.307059020000000,SPI,MOSI: 0x08;  MISO: 0x00
5.307139040000000,SPI,MOSI: 0x7B;  MISO: 0x00
5.307401580000000,SPI,MOSI: 0x08;  MISO: 0x00
5.307481620000000,SPI,MOSI: 0x8E;  MISO: 0x00
5.307742380000000,SPI,MOSI: 0x08;  MISO: 0x00
5.307822420000000,SPI,MOSI: 0x61;  MISO: 0x00
5.308083960000000,SPI,MOSI: 0x08;  MISO: 0x00
5.308163980000000,SPI,MOSI: 0xEE;  MISO: 0x00
5.308424480000000,SPI,MOSI: 0x08;  MISO: 0x00
5.308504500000000,SPI,MOSI: 0xCE;  MISO: 0x00
5.308764200000000,SPI,MOSI: 0x08;  MISO: 0x00
5.308844240000000,SPI,MOSI: 0x33;  MISO: 0x00
5.309103800000000,SPI,MOSI: 0x08;  MISO: 0x00
5.309183820000000,SPI,MOSI: 0xD8;  MISO: 0x00
5.309444060000000,SPI,MOSI: 0x08;  MISO: 0x00
5.309524100000000,SPI,MOSI: 0xB2;  MISO: 0x00
5.309783760000000,SPI,MOSI: 0x08;  MISO: 0x00
5.309863800000000,SPI,MOSI: 0x32;  MISO: 0x00
5.310123260000000,SPI,MOSI: 0x08;  MISO: 0x00
5.310203280000000,SPI,MOSI: 0x9E;  MISO: 0x00
5.310463860000000,SPI,MOSI: 0x08;  MISO: 0x00
5.310543900000000,SPI,MOSI: 0x29;  MISO: 0x00
5.310804100000000,SPI,MOSI: 0x08;  MISO: 0x00
5.311143620000000,SPI,MOSI: 0x08;  MISO: 0x00
5.311223660000000,SPI,MOSI: 0x49;  MISO: 0x00
5.311486500000000,SPI,MOSI: 0x08;  MISO: 0x00
5.311566520000000,SPI,MOSI: 0x33;  MISO: 0x00
5.311828680000000,SPI,MOSI: 0x08;  MISO: 0x00
5.311908720000000,SPI,MOSI: 0x0E;  MISO: 0x00
5.312169960000000,SPI,MOSI: 0x08;  MISO: 0x00
5.312249980000000,SPI,MOSI: 0xD0;  MISO: 0x00
5.312510000000000,SPI,MOSI: 0x08;  MISO: 0x00
5.312590020000000,SPI,MOSI: 0x63;  MISO: 0x00
5.312932120000000,SPI,MOSI: 0x08;  MISO: 0x00
5.313012160000000,SPI,MOSI: 0xE7;  MISO: 0x00
5.313274640000000,SPI,MOSI: 0x08;  MISO: 0x00
5.313354680000000,SPI,MOSI: 0xAD;  MISO: 0x00
5.313615580000000,SPI,MOSI: 0x08;  MISO: 0x00
5.313695620000000,SPI,MOSI: 0x0B;  MISO: 0x00
5.313958280000000,SPI,MOSI: 0x08;  MISO: 0x00
5.314038320000000,SPI,MOSI: 0xF8;  MISO: 0x00
5.314413220000000,SPI,MOSI: 0x08;  MISO: 0x00
5.314493260000000,SPI,MOSI: 0x00;  MISO: 0x00
5.314740400000000,SPI,MOSI: 0x88;  MISO: 0x00
5.314820440000000,SPI,MOSI: 0xA0;  MISO: 0x00
5.315082840000000,SPI,MOSI: 0x08;  MISO: 0x00
5.315162860000000,SPI,MOSI: 0x3D;  MISO: 0x00
5.315424460000000,SPI,MOSI: 0x88;  MISO: 0x00
5.315504500000000,SPI,MOSI: 0xC0;  MISO: 0x00
5.315765900000000,SPI,MOSI: 0x08;  MISO: 0x00
5.315845920000000,SPI,MOSI: 0x11;  MISO: 0x00
5.316104800000000,SPI,MOSI: 0x08;  MISO: 0x00
5.316184820000000,SPI,MOSI: 0xEC;  MISO: 0x00
5.316449680000000,SPI,MOSI: 0x08;  MISO: 0x00
5.316529700000000,SPI,MOSI: 0x22;  MISO: 0x00
5.316788360000000,SPI,MOSI: 0x08;  MISO: 0x00
5.316868380000000,SPI,MOSI: 0x19;  MISO: 0x00
5.317127340000000,SPI,MOSI: 0x08;  MISO: 0x00
5.317207360000000,SPI,MOSI: 0xE4;  MISO: 0x00
5.317468240000000,SPI,MOSI: 0x08;  MISO: 0x00
5.317548260000000,SPI,MOSI: 0x3C;  MISO: 0x00
5.317806420000000,SPI,MOSI: 0x08;  MISO: 0x00
5.317886440000000,SPI,MOSI: 0x68;  MISO: 0x00
5.318145600000000,SPI,MOSI: 0x08;  MISO: 0x00
5.318225620000000,SPI,MOSI: 0x8E;  MISO: 0x00
5.318484540000000,SPI,MOSI: 0x08;  MISO: 0x00
5.318564560000000,SPI,MOSI: 0x03;  MISO: 0x00
5.318824280000000,SPI,MOSI: 0x08;  MISO: 0x00
5.318904320000000,SPI,MOSI: 0xEB;  MISO: 0x00
5.319167220000000,SPI,MOSI: 0x08;  MISO: 0x00
5.319247260000000,SPI,MOSI: 0x60;  MISO: 0x00
5.319508760000000,SPI,MOSI: 0x08;  MISO: 0x00
5.319851940000000,SPI,MOSI: 0x08;  MISO: 0x00
5.319931980000000,SPI,MOSI: 0x0F;  MISO: 0x00
5.320192300000000,SPI,MOSI: 0x08;  MISO: 0x00
5.320272340000000,SPI,MOSI: 0x6B;  MISO: 0x00
5.320533000000000,SPI,MOSI: 0x08;  MISO: 0x00
5.320613040000000,SPI,MOSI: 0x6C;  MISO: 0x00
5.320873820000000,SPI,MOSI: 0x08;  MISO: 0x00
5.320953840000000,SPI,MOSI: 0x56;  MISO: 0x00
5.321213820000000,SPI,MOSI: 0x08;  MISO: 0x00
5.321556840000000,SPI,MOSI: 0x08;  MISO: 0x00
5.321636860000000,SPI,MOSI: 0xF9;  MISO: 0x00
5.321896080000000,SPI,MOSI: 0x08;  MISO: 0x00
5.321976120000000,SPI,MOSI: 0x65;  MISO: 0x00
5.322238020000000,SPI,MOSI: 0x08;  MISO: 0x00
5.322318060000000,SPI,MOSI: 0x7A;  MISO: 0x00
5.322581180000000,SPI,MOSI: 0x08;  MISO: 0x00
5.322661200000000,SPI,MOSI: 0x08;  MISO: 0x00
5.322923740000000,SPI,MOSI: 0x88;  MISO: 0x00
5.323003780000000,SPI,MOSI: 0xA4;  MISO: 0x00
5.323262780000000,SPI,MOSI: 0x08;  MISO: 0x00
5.323342820000000,SPI,MOSI: 0x19;  MISO: 0x00
5.323603300000000,SPI,MOSI: 0x08;  MISO: 0x00
5.323944120000000,SPI,MOSI: 0x08;  MISO: 0x00
5.324024140000000,SPI,MOSI: 0xC3;  MISO: 0x00
5.324345020000000,SPI,MOSI: 0x88;  MISO: 0x00
5.324425060000000,SPI,MOSI: 0x56;  MISO: 0x00
5.324676820000000,SPI,MOSI: 0x08;  MISO: 0x00
5.324756860000000,SPI,MOSI: 0x38;  MISO: 0x00
5.325016600000000,SPI,MOSI: 0x88;  MISO: 0x00
5.325096640000000,SPI,MOSI: 0xAC;  MISO: 0x00
5.325357700000000,SPI,MOSI: 0x08;  MISO: 0x00
5.325437720000000,SPI,MOSI: 0xDF;  MISO: 0x00
5.325696580000000,SPI,MOSI: 0x08;  MISO: 0x00
5.325776600000000,SPI,MOSI: 0x86;  MISO: 0x00
5.326037260000000,SPI,MOSI: 0x08;  MISO: 0x00
5.326117280000000,SPI,MOSI: 0xF0;  MISO: 0x00
5.326377380000000,SPI,MOSI: 0x88;  MISO: 0x00
5.326457420000000,SPI,MOSI: 0xC2;  MISO: 0x00
5.326718400000000,SPI,MOSI: 0x08;  MISO: 0x00
5.326798420000000,SPI,MOSI: 0x9E;  MISO: 0x00
5.327063340000000,SPI,MOSI: 0x08;  MISO: 0x00
5.327143360000000,SPI,MOSI: 0x01;  MISO: 0x00
5.327404720000000,SPI,MOSI: 0x08;  MISO: 0x00
5.327484740000000,SPI,MOSI: 0x33;  MISO: 0x00
5.327746640000000,SPI,MOSI: 0x08;  MISO: 0x00
5.327826680000000,SPI,MOSI: 0x3F;  MISO: 0x00
5.328088520000000,SPI,MOSI: 0x08;  MISO: 0x00
5.328168560000000,SPI,MOSI: 0xFC;  MISO: 0x00
5.328429760000000,SPI,MOSI: 0x08;  MISO: 0x00
5.328509780000000,SPI,MOSI: 0xD7;  MISO: 0x00
5.328770020000000,SPI,MOSI: 0x88;  MISO: 0x00
5.328850060000000,SPI,MOSI: 0x51;  MISO: 0x00
5.329109820000000,SPI,MOSI: 0x08;  MISO: 0x00
5.329189840000000,SPI,MOSI: 0xF9;  MISO: 0x00
5.329455680000000,SPI,MOSI: 0x08;  MISO: 0x00
5.329535700000000,SPI,MOSI: 0x7F;  MISO: 0x00
5.329797080000000,SPI,MOSI: 0x08;  MISO: 0x00
5.329877100000000,SPI,MOSI: 0xB3;  MISO: 0x00
5.330137220000000,SPI,MOSI: 0x08;  MISO: 0x00
5.330217260000000,SPI,MOSI: 0xB3;  MISO: 0x00
5.330529520000000,SPI,MOSI: 0x12;  MISO: 0x00
5.330820020000000,SPI,MOSI: 0x08;  MISO: 0x00
5.330900040000000,SPI,MOSI: 0xA4;  MISO: 0x00
5.331161540000000,SPI,MOSI: 0x08;  MISO: 0x00
5.331241580000000,SPI,MOSI: 0x7F;  MISO: 0x00
5.331500840000000,SPI,MOSI: 0x08;  MISO: 0x00
5.331580860000000,SPI,MOSI: 0x00;  MISO: 0x00
5.331844160000000,SPI,MOSI: 0x08;  MISO: 0x00
5.331924180000000,SPI,MOSI: 0x70;  MISO: 0x00
5.332183560000000,SPI,MOSI: 0x08;  MISO: 0x00
5.332263580000000,SPI,MOSI: 0x80;  MISO: 0x00
5.332524160000000,SPI,MOSI: 0x88;  MISO: 0x00
5.332604200000000,SPI,MOSI: 0x91;  MISO: 0x00
5.332863460000000,SPI,MOSI: 0x08;  MISO: 0x00
5.332943500000000,SPI,MOSI: 0x68;  MISO: 0x00
5.333205480000000,SPI,MOSI: 0x08;  MISO: 0x00
5.333285500000000,SPI,MOSI: 0x48;  MISO: 0x00
5.333547180000000,SPI,MOSI: 0x08;  MISO: 0x00
5.333627200000000,SPI,MOSI: 0x0B;  MISO: 0x00
5.333886720000000,SPI,MOSI: 0x08;  MISO: 0x00
5.333966740000000,SPI,MOSI: 0x03;  MISO: 0x00
5.334317640000000,SPI,MOSI: 0x08;  MISO: 0x00
5.334397660000000,SPI,MOSI: 0x13;  MISO: 0x00
5.334662060000000,SPI,MOSI: 0x08;  MISO: 0x00
5.334742080000000,SPI,MOSI: 0xF3;  MISO: 0x00
5.335004720000000,SPI,MOSI: 0x08;  MISO: 0x00
5.335084760000000,SPI,MOSI: 0x45;  MISO: 0x00
5.335344840000000,SPI,MOSI: 0x08;  MISO: 0x00
5.335424880000000,SPI,MOSI: 0x16;  MISO: 0x00
5.335686360000000,SPI,MOSI: 0x08;  MISO: 0x00
5.335766380000000,SPI,MOSI: 0xEC;  MISO: 0x00
5.336028380000000,SPI,MOSI: 0x08;  MISO: 0x00
5.336108400000000,SPI,MOSI: 0xD4;  MISO: 0x00
5.336367400000000,SPI,MOSI: 0x08;  MISO: 0x00
5.336447440000000,SPI,MOSI: 0xAC;  MISO: 0x00
5.336707120000000,SPI,MOSI: 0x08;  MISO: 0x00
5.336787160000000,SPI,MOSI: 0x01;  MISO: 0x00
5.337045280000000,SPI,MOSI: 0x08;  MISO: 0x00
5.337387020000000,SPI,MOSI: 0x08;  MISO: 0x00
5.337467040000000,SPI,MOSI: 0xD2;  MISO: 0x00
5.337725140000000,SPI,MOSI: 0x08;  MISO: 0x00
5.337805160000000,SPI,MOSI: 0x36;  MISO: 0x00
5.338065700000000,SPI,MOSI: 0x08;  MISO: 0x00
5.338145720000000,SPI,MOSI: 0xEF;  MISO: 0x00
5.338408220000000,SPI,MOSI: 0x08;  MISO: 0x00
5.338488240000000,SPI,MOSI: 0x4A;  MISO: 0x00
5.338747120000000,SPI,MOSI: 0x08;  MISO: 0x00
5.338827140000000,SPI,MOSI: 0x01;  MISO: 0x00
5.339087500000000,SPI,MOSI: 0x08;  MISO: 0x00
5.339167520000000,SPI,MOSI: 0xFA;  MISO: 0x00
5.339429600000000,SPI,MOSI: 0x88;  MISO: 0x00
5.339509640000000,SPI,MOSI: 0xCF;  MISO: 0x00
5.339769160000000,SPI,MOSI: 0x08;  MISO: 0x00
5.339849200000000,SPI,MOSI: 0x70;  MISO: 0x00
5.340110760000000,SPI,MOSI: 0x08;  MISO: 0x00
5.340190780000000,SPI,MOSI: 0x03;  MISO: 0x00
5.340451000000000,SPI,MOSI: 0x08;  MISO: 0x00
5.340531020000000,SPI,MOSI: 0x00;  MISO: 0x00
5.340789020000000,SPI,MOSI: 0x08;  MISO: 0x00
5.340869060000000,SPI,MOSI: 0xBF;  MISO: 0x00
5.341128860000000,SPI,MOSI: 0x08;  MISO: 0x00
5.341208880000000,SPI,MOSI: 0xB9;  MISO: 0x00
5.341470360000000,SPI,MOSI: 0x08;  MISO: 0x00
5.341550380000000,SPI,MOSI: 0x7B;  MISO: 0x00
5.341810520000000,SPI,MOSI: 0x88;  MISO: 0x00
5.341890560000000,SPI,MOSI: 0xC7;  MISO: 0x00
5.342153760000000,SPI,MOSI: 0x08;  MISO: 0x00
5.342233800000000,SPI,MOSI: 0x73;  MISO: 0x00
5.342492780000000,SPI,MOSI: 0x08;  MISO: 0x00
5.342572800000000,SPI,MOSI: 0x58;  MISO: 0x00
5.342831600000000,SPI,MOSI: 0x08;  MISO: 0x00
5.342911620000000,SPI,MOSI: 0x70;  MISO: 0x00
5.343175120000000,SPI,MOSI: 0x08;  MISO: 0x00
5.343255140000000,SPI,MOSI: 0xA0;  MISO: 0x00
5.343515720000000,SPI,MOSI: 0x08;  MISO: 0x00
5.343595760000000,SPI,MOSI: 0x87;  MISO: 0x00
5.343857120000000,SPI,MOSI: 0x08;  MISO: 0x00
5.343937160000000,SPI,MOSI: 0x9C;  MISO: 0x00
5.344250400000000,SPI,MOSI: 0x08;  MISO: 0x00
5.344330420000000,SPI,MOSI: 0x2C;  MISO: 0x00
5.344614120000000,SPI,MOSI: 0x08;  MISO: 0x00
5.344694140000000,SPI,MOSI: 0x3B;  MISO: 0x00
5.344954080000000,SPI,MOSI: 0x08;  MISO: 0x00
5.345034100000000,SPI,MOSI: 0x8D;  MISO: 0x00
5.345294720000000,SPI,MOSI: 0x08;  MISO: 0x00
5.345374760000000,SPI,MOSI: 0x77;  MISO: 0x00
5.345633780000000,SPI,MOSI: 0x08;  MISO: 0x00
5.345713800000000,SPI,MOSI: 0xCE;  MISO: 0x00
5.346023640000000,SPI,MOSI: 0x01;  MISO: 0x00
5.346313920000000,SPI,MOSI: 0x08;  MISO: 0x00
5.346393940000000,SPI,MOSI: 0x52;  MISO: 0x00
5.346653580000000,SPI,MOSI: 0x08;  MISO: 0x00
5.346733600000000,SPI,MOSI: 0x5F;  MISO: 0x00
5.346995080000000,SPI,MOSI: 0x08;  MISO: 0x00
5.347336200000000,SPI,MOSI: 0x08;  MISO: 0x00
5.347416220000000,SPI,MOSI: 0x00;  MISO: 0x00
5.347676840000000,SPI,MOSI: 0x08;  MISO: 0x00
5.347756860000000,SPI,MOSI: 0x75;  MISO: 0x00
5.348018720000000,SPI,MOSI: 0x08;  MISO: 0x00
5.348098740000000,SPI,MOSI: 0xF9;  MISO: 0x00
5.348359500000000,SPI,MOSI: 0x08;  MISO: 0x00
5.348439520000000,SPI,MOSI: 0xAD;  MISO: 0x00
5.348700880000000,SPI,MOSI: 0x08;  MISO: 0x00
5.348780900000000,SPI,MOSI: 0xA2;  MISO: 0x00
5.349039580000000,SPI,MOSI: 0x08;  MISO: 0x00
5.349119600000000,SPI,MOSI: 0xB9;  MISO: 0x00
5.349429660000000,SPI,MOSI: 0x10;  MISO: 0x00
5.349722740000000,SPI,MOSI: 0x08;  MISO: 0x00
5.349802760000000,SPI,MOSI: 0x55;  MISO: 0x00
5.350062820000000,SPI,MOSI: 0x08;  MISO: 0x00
5.350142860000000,SPI,MOSI: 0xDF;  MISO: 0x00
5.350403320000000,SPI,MOSI: 0x08;  MISO: 0x00
5.350483360000000,SPI,MOSI: 0x41;  MISO: 0x00
5.350745720000000,SPI,MOSI: 0x08;  MISO: 0x00
5.350825740000000,SPI,MOSI: 0xBF;  MISO: 0x00
5.351086920000000,SPI,MOSI: 0x08;  MISO: 0x00
5.351166940000000,SPI,MOSI: 0x5F;  MISO: 0x00
5.351426560000000,SPI,MOSI: 0x08;  MISO: 0x00
5.351506600000000,SPI,MOSI: 0x4D;  MISO: 0x00
5.351767040000000,SPI,MOSI: 0x08;  MISO: 0x00
5.351847080000000,SPI,MOSI: 0x2A;  MISO: 0x00
5.352107200000000,SPI,MOSI: 0x08;  MISO: 0x00
5.352187220000000,SPI,MOSI: 0x2B;  MISO: 0x00
5.352448020000000,SPI,MOSI: 0x08;  MISO: 0x00
5.352528060000000,SPI,MOSI: 0x81;  MISO: 0x00
5.352788720000000,SPI,MOSI: 0x08;  MISO: 0x00
5.352868740000000,SPI,MOSI: 0xE2;  MISO: 0x00
5.353129000000000,SPI,MOSI: 0x08;  MISO: 0x00
5.353209020000000,SPI,MOSI: 0xF0;  MISO: 0x00
5.353520540000000,SPI,MOSI: 0x0F;  MISO: 0x00
5.353813700000000,SPI,MOSI: 0x08;  MISO: 0x00
5.353893720000000,SPI,MOSI: 0xAB;  MISO: 0x00
5.354154540000000,SPI,MOSI: 0x08;  MISO: 0x00
5.354234560000000,SPI,MOSI: 0x71;  MISO: 0x00
5.354550280000000,SPI,MOSI: 0x08;  MISO: 0x00
5.354630320000000,SPI,MOSI: 0xB9;  MISO: 0x00
5.354891040000000,SPI,MOSI: 0x08;  MISO: 0x00
5.354971080000000,SPI,MOSI: 0xA8;  MISO: 0x00
5.355232300000000,SPI,MOSI: 0x88;  MISO: 0x00
5.355312340000000,SPI,MOSI: 0x3C;  MISO: 0x00
5.355572360000000,SPI,MOSI: 0x08;  MISO: 0x00
5.355652380000000,SPI,MOSI: 0x28;  MISO: 0x00
5.355911720000000,SPI,MOSI: 0x08;  MISO: 0x00
5.355991740000000,SPI,MOSI: 0xD9;  MISO: 0x00
5.356248620000000,SPI,MOSI: 0x08;  MISO: 0x00
5.356328640000000,SPI,MOSI: 0x45;  MISO: 0x00
5.356588020000000,SPI,MOSI: 0x08;  MISO: 0x00
5.356668040000000,SPI,MOSI: 0x77;  MISO: 0x00
5.356927720000000,SPI,MOSI: 0x08;  MISO: 0x00
5.357007740000000,SPI,MOSI: 0xF3;  MISO: 0x00
5.357270160000000,SPI,MOSI: 0x08;  MISO: 0x00
5.357350180000000,SPI,MOSI: 0xB0;  MISO: 0x00
5.357610780000000,SPI,MOSI: 0x08;  MISO: 0x00
5.357690800000000,SPI,MOSI: 0xCD;  MISO: 0x00
5.357952480000000,SPI,MOSI: 0x88;  MISO: 0x00
5.358032520000000,SPI,MOSI: 0x21;  MISO: 0x00
5.358295320000000,SPI,MOSI: 0x08;  MISO: 0x00
5.358375340000000,SPI,MOSI: 0x2A;  MISO: 0x00
5.358637520000000,SPI,MOSI: 0x08;  MISO: 0x00
5.358717560000000,SPI,MOSI: 0xC9;  MISO: 0x00
5.358978320000000,SPI,MOSI: 0x88;  MISO: 0x00
5.359058360000000,SPI,MOSI: 0x03;  MISO: 0x00
5.359318360000000,SPI,MOSI: 0x08;  MISO: 0x00
5.359398400000000,SPI,MOSI: 0xD8;  MISO: 0x00
5.359660520000000,SPI,MOSI: 0x08;  MISO: 0x00
5.359740540000000,SPI,MOSI: 0x4E;  MISO: 0x00
5.360002460000000,SPI,MOSI: 0x08;  MISO: 0x00
5.360082480000000,SPI,MOSI: 0xF1;  MISO: 0x00
5.360343680000000,SPI,MOSI: 0x08;  MISO: 0x00
5.360423700000000,SPI,MOSI: 0xC2;  MISO: 0x00
5.360685420000000,SPI,MOSI: 0x08;  MISO: 0x00
5.360765440000000,SPI,MOSI: 0x68;  MISO: 0x00
5.361028540000000,SPI,MOSI: 0x08;  MISO: 0x00
5.361108580000000,SPI,MOSI: 0x63;  MISO: 0x00
5.361418500000000,SPI,MOSI: 0x18;  MISO: 0x00
5.361708320000000,SPI,MOSI: 0x08;  MISO: 0x00
5.361788360000000,SPI,MOSI: 0xCC;  MISO: 0x00
5.362100580000000,SPI,MOSI: 0x00;  MISO: 0x00
5.362391660000000,SPI,MOSI: 0x08;  MISO: 0x00
5.362471680000000,SPI,MOSI: 0x66;  MISO: 0x00
5.362734700000000,SPI,MOSI: 0x08;  MISO: 0x00
5.362814720000000,SPI,MOSI: 0x78;  MISO: 0x00
5.363075620000000,SPI,MOSI: 0x08;  MISO: 0x00
5.363155640000000,SPI,MOSI: 0xD9;  MISO: 0x00
5.363418340000000,SPI,MOSI: 0x08;  MISO: 0x00
5.363498360000000,SPI,MOSI: 0x41;  MISO: 0x00
5.363757200000000,SPI,MOSI: 0x08;  MISO: 0x00
5.363837220000000,SPI,MOSI: 0x22;  MISO: 0x00
5.364097800000000,SPI,MOSI: 0x08;  MISO: 0x00
5.364177820000000,SPI,MOSI: 0x5E;  MISO: 0x00
5.364464500000000,SPI,MOSI: 0x08;  MISO: 0x00
5.364544520000000,SPI,MOSI: 0x90;  MISO: 0x00
5.364805240000000,SPI,MOSI: 0x08;  MISO: 0x00
5.364885260000000,SPI,MOSI: 0xC1;  MISO: 0x00
5.365145120000000,SPI,MOSI: 0x08;  MISO: 0x00
5.365225140000000,SPI,MOSI: 0xB5;  MISO: 0x00
5.365485920000000,SPI,MOSI: 0x08;  MISO: 0x00
5.365565940000000,SPI,MOSI: 0x8F;  MISO: 0x00
5.365825000000000,SPI,MOSI: 0x08;  MISO: 0x00
5.365905020000000,SPI,MOSI: 0xB1;  MISO: 0x00
5.366163300000000,SPI,MOSI: 0x08;  MISO: 0x00
5.366243320000000,SPI,MOSI: 0xF7;  MISO: 0x00
5.366503000000000,SPI,MOSI: 0x08;  MISO: 0x00
5.366583040000000,SPI,MOSI: 0x1F;  MISO: 0x00
5.366843140000000,SPI,MOSI: 0x08;  MISO: 0x00
5.366923180000000,SPI,MOSI: 0x8D;  MISO: 0x00
5.367183300000000,SPI,MOSI: 0x08;  MISO: 0x00
5.367263320000000,SPI,MOSI: 0xDE;  MISO: 0x00
5.367525300000000,SPI,MOSI: 0x08;  MISO: 0x00
5.367605320000000,SPI,MOSI: 0x9A;  MISO: 0x00
5.367864400000000,SPI,MOSI: 0x08;  MISO: 0x00
5.367944440000000,SPI,MOSI: 0xEB;  MISO: 0x00
5.368206260000000,SPI,MOSI: 0x08;  MISO: 0x00
5.368286280000000,SPI,MOSI: 0xAE;  MISO: 0x00
5.368549980000000,SPI,MOSI: 0x08;  MISO: 0x00
5.368890840000000,SPI,MOSI: 0x08;  MISO: 0x00
5.368970880000000,SPI,MOSI: 0x79;  MISO: 0x00
5.369231800000000,SPI,MOSI: 0x08;  MISO: 0x00
5.369311820000000,SPI,MOSI: 0xDA;  MISO: 0x00
5.369610300000000,SPI,MOSI: 0x08;  MISO: 0x00
5.369690320000000,SPI,MOSI: 0xF6;  MISO: 0x00
5.369950660000000,SPI,MOSI: 0x08;  MISO: 0x00
5.370030680000000,SPI,MOSI: 0x14;  MISO: 0x00
5.370291080000000,SPI,MOSI: 0x08;  MISO: 0x00
5.370371100000000,SPI,MOSI: 0x43;  MISO: 0x00
5.370631200000000,SPI,MOSI: 0x08;  MISO: 0x00
5.370711220000000,SPI,MOSI: 0x60;  MISO: 0x00
5.370973900000000,SPI,MOSI: 0x08;  MISO: 0x00
5.371053920000000,SPI,MOSI: 0xF2;  MISO: 0x00
5.371313540000000,SPI,MOSI: 0x08;  MISO: 0x00
5.371393560000000,SPI,MOSI: 0x25;  MISO: 0x00
5.371652380000000,SPI,MOSI: 0x08;  MISO: 0x00
5.371732400000000,SPI,MOSI: 0xC3;  MISO: 0x00
5.371992580000000,SPI,MOSI: 0x08;  MISO: 0x00
5.372072600000000,SPI,MOSI: 0x1C;  MISO: 0x00
5.372332180000000,SPI,MOSI: 0x08;  MISO: 0x00
5.372412200000000,SPI,MOSI: 0x5E;  MISO: 0x00
5.372674100000000,SPI,MOSI: 0x08;  MISO: 0x00
5.372754140000000,SPI,MOSI: 0x15;  MISO: 0x00
5.373015620000000,SPI,MOSI: 0x08;  MISO: 0x00
5.373095640000000,SPI,MOSI: 0x08;  MISO: 0x00
5.373356440000000,SPI,MOSI: 0x08;  MISO: 0x00
5.373436460000000,SPI,MOSI: 0x38;  MISO: 0x00
5.373696380000000,SPI,MOSI: 0x08;  MISO: 0x00
5.373776420000000,SPI,MOSI: 0x88;  MISO: 0x00
5.374040860000000,SPI,MOSI: 0x88;  MISO: 0x00
5.374120900000000,SPI,MOSI: 0x09;  MISO: 0x00
5.374468240000000,SPI,MOSI: 0x08;  MISO: 0x00
5.374548260000000,SPI,MOSI: 0x5C;  MISO: 0x00
5.374810480000000,SPI,MOSI: 0x08;  MISO: 0x00
5.374890500000000,SPI,MOSI: 0x34;  MISO: 0x00
5.375151640000000,SPI,MOSI: 0x08;  MISO: 0x00
5.375231660000000,SPI,MOSI: 0xEE;  MISO: 0x00
5.375493320000000,SPI,MOSI: 0x88;  MISO: 0x00
5.375573360000000,SPI,MOSI: 0x41;  MISO: 0x00
5.375831780000000,SPI,MOSI: 0x08;  MISO: 0x00
5.375911820000000,SPI,MOSI: 0x8D;  MISO: 0x00
5.376172180000000,SPI,MOSI: 0x08;  MISO: 0x00
5.376252200000000,SPI,MOSI: 0x54;  MISO: 0x00
5.376511460000000,SPI,MOSI: 0x08;  MISO: 0x00
5.376591480000000,SPI,MOSI: 0xB1;  MISO: 0x00
5.376852000000000,SPI,MOSI: 0x08;  MISO: 0x00
5.376932020000000,SPI,MOSI: 0x48;  MISO: 0x00
5.377193120000000,SPI,MOSI: 0x08;  MISO: 0x00
5.377273140000000,SPI,MOSI: 0x98;  MISO: 0x00
5.377534640000000,SPI,MOSI: 0x08;  MISO: 0x00
5.377614660000000,SPI,MOSI: 0xA8;  MISO: 0x00
5.377875300000000,SPI,MOSI: 0x08;  MISO: 0x00
5.377955320000000,SPI,MOSI: 0x0D;  MISO: 0x00
5.378217500000000,SPI,MOSI: 0x08;  MISO: 0x00
5.378297520000000,SPI,MOSI: 0x9F;  MISO: 0x00
5.378558860000000,SPI,MOSI: 0x08;  MISO: 0x00
5.378638880000000,SPI,MOSI: 0x59;  MISO: 0x00
5.378898180000000,SPI,MOSI: 0x08;  MISO: 0x00
5.378978220000000,SPI,MOSI: 0x1C;  MISO: 0x00
5.379237960000000,SPI,MOSI: 0x08;  MISO: 0x00
5.379317980000000,SPI,MOSI: 0xD9;  MISO: 0x00
5.379577420000000,SPI,MOSI: 0x08;  MISO: 0x00
5.379657440000000,SPI,MOSI: 0x0C;  MISO: 0x00
5.379919220000000,SPI,MOSI: 0x08;  MISO: 0x00
5.379999240000000,SPI,MOSI: 0x9D;  MISO: 0x00
5.380258260000000,SPI,MOSI: 0x08;  MISO: 0x00
5.380338280000000,SPI,MOSI: 0xF0;  MISO: 0x00
5.380599260000000,SPI,MOSI: 0x08;  MISO: 0x00
5.380679280000000,SPI,MOSI: 0xAE;  MISO: 0x00
5.380939740000000,SPI,MOSI: 0x08;  MISO: 0x00
5.381019760000000,SPI,MOSI: 0x1E;  MISO: 0x00
5.381284460000000,SPI,MOSI: 0x08;  MISO: 0x00
5.381364480000000,SPI,MOSI: 0xF8;  MISO: 0x00
5.381621680000000,SPI,MOSI: 0x08;  MISO: 0x00
5.381701720000000,SPI,MOSI: 0xB3;  MISO: 0x00
5.381962360000000,SPI,MOSI: 0x08;  MISO: 0x00
5.382042380000000,SPI,MOSI: 0xD5;  MISO: 0x00
5.382302120000000,SPI,MOSI: 0x08;  MISO: 0x00
5.382382140000000,SPI,MOSI: 0x6D;  MISO: 0x00
5.382642740000000,SPI,MOSI: 0x08;  MISO: 0x00
5.382722780000000,SPI,MOSI: 0x6E;  MISO: 0x00
5.382985060000000,SPI,MOSI: 0x08;  MISO: 0x00
5.383065080000000,SPI,MOSI: 0x0C;  MISO: 0x00
5.383323960000000,SPI,MOSI: 0x88;  MISO: 0x00
5.383404000000000,SPI,MOSI: 0x3D;  MISO: 0x00
5.383666220000000,SPI,MOSI: 0x08;  MISO: 0x00
5.383746240000000,SPI,MOSI: 0x76;  MISO: 0x00
5.384003680000000,SPI,MOSI: 0x08;  MISO: 0x00
5.384083720000000,SPI,MOSI: 0xC6;  MISO: 0x00
5.384414700000000,SPI,MOSI: 0x08;  MISO: 0x00
5.384494720000000,SPI,MOSI: 0xAC;  MISO: 0x00
5.384772800000000,SPI,MOSI: 0x08;  MISO: 0x00
5.384852840000000,SPI,MOSI: 0x2E;  MISO: 0x00
5.385120340000000,SPI,MOSI: 0x08;  MISO: 0x00
5.385200360000000,SPI,MOSI: 0xFF;  MISO: 0x00
5.385461060000000,SPI,MOSI: 0x08;  MISO: 0x00
5.385541080000000,SPI,MOSI: 0x8E;  MISO: 0x00
5.385801060000000,SPI,MOSI: 0x08;  MISO: 0x00
5.385881080000000,SPI,MOSI: 0x5D;  MISO: 0x00
5.386140560000000,SPI,MOSI: 0x08;  MISO: 0x00
5.386220600000000,SPI,MOSI: 0x7B;  MISO: 0x00
5.386482100000000,SPI,MOSI: 0x08;  MISO: 0x00
5.386562120000000,SPI,MOSI: 0x8E;  MISO: 0x00
5.386909340000000,SPI,MOSI: 0x08;  MISO: 0x00
5.386989380000000,SPI,MOSI: 0x61;  MISO: 0x00
5.387257060000000,SPI,MOSI: 0x08;  MISO: 0x00
5.387337080000000,SPI,MOSI: 0xEE;  MISO: 0x00
5.387598100000000,SPI,MOSI: 0x08;  MISO: 0x00
5.387939620000000,SPI,MOSI: 0x08;  MISO: 0x00
5.388019640000000,SPI,MOSI: 0x33;  MISO: 0x00
5.388281520000000,SPI,MOSI: 0x08;  MISO: 0x00
5.388361560000000,SPI,MOSI: 0xD8;  MISO: 0x00
5.388622700000000,SPI,MOSI: 0x08;  MISO: 0x00
5.388962260000000,SPI,MOSI: 0x08;  MISO: 0x00
5.389042300000000,SPI,MOSI: 0x32;  MISO: 0x00
5.389304460000000,SPI,MOSI: 0x08;  MISO: 0x00
5.389384500000000,SPI,MOSI: 0x9E;  MISO: 0x00
5.389647020000000,SPI,MOSI: 0x08;  MISO: 0x00
5.389727040000000,SPI,MOSI: 0x29;  MISO: 0x00
5.389987800000000,SPI,MOSI: 0x08;  MISO: 0x00
5.390067820000000,SPI,MOSI: 0x5D;  MISO: 0x00
5.390325280000000,SPI,MOSI: 0x08;  MISO: 0x00
5.390405300000000,SPI,MOSI: 0x49;  MISO: 0x00
5.390665300000000,SPI,MOSI: 0x08;  MISO: 0x00
5.390745320000000,SPI,MOSI: 0x33;  MISO: 0x00
5.391008840000000,SPI,MOSI: 0x08;  MISO: 0x00
5.391088860000000,SPI,MOSI: 0x0E;  MISO: 0x00
5.391352600000000,SPI,MOSI: 0x08;  MISO: 0x00
5.391432620000000,SPI,MOSI: 0xD0;  MISO: 0x00
5.391697860000000,SPI,MOSI: 0x08;  MISO: 0x00
5.391777900000000,SPI,MOSI: 0x63;  MISO: 0x00
5.392039640000000,SPI,MOSI: 0x08;  MISO: 0x00
5.392119660000000,SPI,MOSI: 0xE7;  MISO: 0x00
5.392380200000000,SPI,MOSI: 0x08;  MISO: 0x00
5.392460240000000,SPI,MOSI: 0xAD;  MISO: 0x00
5.392723240000000,SPI,MOSI: 0x08;  MISO: 0x00
5.392803260000000,SPI,MOSI: 0x0B;  MISO: 0x00
5.393063360000000,SPI,MOSI: 0x08;  MISO: 0x00
5.393143380000000,SPI,MOSI: 0xF8;  MISO: 0x00
5.393405000000000,SPI,MOSI: 0x08;  MISO: 0x00
5.393485020000000,SPI,MOSI: 0x00;  MISO: 0x00
5.393743020000000,SPI,MOSI: 0x08;  MISO: 0x00
5.393823040000000,SPI,MOSI: 0xA0;  MISO: 0x00
5.394086660000000,SPI,MOSI: 0x08;  MISO: 0x00
5.394166680000000,SPI,MOSI: 0x3D;  MISO: 0x00
5.394497580000000,SPI,MOSI: 0x08;  MISO: 0x00
5.394577600000000,SPI,MOSI: 0xC0;  MISO: 0x00
5.394838120000000,SPI,MOSI: 0x08;  MISO: 0x00
5.394918160000000,SPI,MOSI: 0x11;  MISO: 0x00
5.395176260000000,SPI,MOSI: 0x08;  MISO: 0x00
5.395256280000000,SPI,MOSI: 0xEC;  MISO: 0x00
5.395517460000000,SPI,MOSI: 0x08;  MISO: 0x00
5.395597480000000,SPI,MOSI: 0x22;  MISO: 0x00
5.395856520000000,SPI,MOSI: 0x08;  MISO: 0x00
5.395936540000000,SPI,MOSI: 0x19;  MISO: 0x00
5.396195880000000,SPI,MOSI: 0x08;  MISO: 0x00
5.396275900000000,SPI,MOSI: 0xE4;  MISO: 0x00
5.396535560000000,SPI,MOSI: 0x08;  MISO: 0x00
5.396615580000000,SPI,MOSI: 0x3C;  MISO: 0x00
5.396873520000000,SPI,MOSI: 0x08;  MISO: 0x00
5.396953540000000,SPI,MOSI: 0x68;  MISO: 0x00
5.397214740000000,SPI,MOSI: 0x08;  MISO: 0x00
5.397554640000000,SPI,MOSI: 0x08;  MISO: 0x00
5.397634660000000,SPI,MOSI: 0x03;  MISO: 0x00
5.397899080000000,SPI,MOSI: 0x08;  MISO: 0x00
5.397979120000000,SPI,MOSI: 0xEB;  MISO: 0x00
5.398239960000000,SPI,MOSI: 0x08;  MISO: 0x00
5.398319980000000,SPI,MOSI: 0x60;  MISO: 0x00
5.398581360000000,SPI,MOSI: 0x08;  MISO: 0x00
5.398661380000000,SPI,MOSI: 0x1C;  MISO: 0x00
5.398923980000000,SPI,MOSI: 0x08;  MISO: 0x00
5.399004020000000,SPI,MOSI: 0x0F;  MISO: 0x00
5.399267900000000,SPI,MOSI: 0x08;  MISO: 0x00
5.399347920000000,SPI,MOSI: 0x6B;  MISO: 0x00
5.399608760000000,SPI,MOSI: 0x08;  MISO: 0x00
5.399688780000000,SPI,MOSI: 0x6C;  MISO: 0x00
5.399949220000000,SPI,MOSI: 0x88;  MISO: 0x00
5.400029260000000,SPI,MOSI: 0x56;  MISO: 0x00
5.400288160000000,SPI,MOSI: 0x08;  MISO: 0x00
5.400368200000000,SPI,MOSI: 0xF2;  MISO: 0x00
5.400629260000000,SPI,MOSI: 0x08;  MISO: 0x00
5.400709280000000,SPI,MOSI: 0xF9;  MISO: 0x00
5.400971220000000,SPI,MOSI: 0x08;  MISO: 0x00
5.401051240000000,SPI,MOSI: 0x65;  MISO: 0x00
5.401312040000000,SPI,MOSI: 0x88;  MISO: 0x00
5.401392080000000,SPI,MOSI: 0x7A;  MISO: 0x00
5.401652960000000,SPI,MOSI: 0x08;  MISO: 0x00
5.401732980000000,SPI,MOSI: 0x08;  MISO: 0x00
5.401995080000000,SPI,MOSI: 0x08;  MISO: 0x00
5.402075120000000,SPI,MOSI: 0xA4;  MISO: 0x00
5.402336240000000,SPI,MOSI: 0x08;  MISO: 0x00
5.402416280000000,SPI,MOSI: 0x19;  MISO: 0x00
5.402676500000000,SPI,MOSI: 0x08;  MISO: 0x00
5.402756520000000,SPI,MOSI: 0x18;  MISO: 0x00
5.403015380000000,SPI,MOSI: 0x08;  MISO: 0x00
5.403095420000000,SPI,MOSI: 0xC3;  MISO: 0x00
5.403357000000000,SPI,MOSI: 0x08;  MISO: 0x00
5.403695360000000,SPI,MOSI: 0x08;  MISO: 0x00
5.403775380000000,SPI,MOSI: 0x38;  MISO: 0x00
5.404036520000000,SPI,MOSI: 0x08;  MISO: 0x00
5.404116540000000,SPI,MOSI: 0xAC;  MISO: 0x00
5.404419860000000,SPI,MOSI: 0x08;  MISO: 0x00
5.404499880000000,SPI,MOSI: 0xDF;  MISO: 0x00
5.404762400000000,SPI,MOSI: 0x08;  MISO: 0x00
5.404842440000000,SPI,MOSI: 0x86;  MISO: 0x00
5.405102000000000,SPI,MOSI: 0x08;  MISO: 0x00
5.405182020000000,SPI,MOSI: 0xF0;  MISO: 0x00
5.405440920000000,SPI,MOSI: 0x08;  MISO: 0x00
5.405520940000000,SPI,MOSI: 0xC2;  MISO: 0x00
5.405781420000000,SPI,MOSI: 0x08;  MISO: 0x00
5.405861440000000,SPI,MOSI: 0x9E;  MISO: 0x00
5.406124200000000,SPI,MOSI: 0x08;  MISO: 0x00
5.406204220000000,SPI,MOSI: 0x01;  MISO: 0x00
5.406463840000000,SPI,MOSI: 0x08;  MISO: 0x00
5.406543860000000,SPI,MOSI: 0x33;  MISO: 0x00
5.406805900000000,SPI,MOSI: 0x08;  MISO: 0x00
5.406885920000000,SPI,MOSI: 0x3F;  MISO: 0x00
5.407146020000000,SPI,MOSI: 0x08;  MISO: 0x00
5.407226040000000,SPI,MOSI: 0xFC;  MISO: 0x00
5.407486700000000,SPI,MOSI: 0x08;  MISO: 0x00
5.407566720000000,SPI,MOSI: 0xD7;  MISO: 0x00
5.407827020000000,SPI,MOSI: 0x08;  MISO: 0x00
5.407907040000000,SPI,MOSI: 0x51;  MISO: 0x00
5.408166240000000,SPI,MOSI: 0x08;  MISO: 0x00
5.408246260000000,SPI,MOSI: 0xF9;  MISO: 0x00
5.408506280000000,SPI,MOSI: 0x08;  MISO: 0x00
5.408586300000000,SPI,MOSI: 0x7F;  MISO: 0x00
5.408845820000000,SPI,MOSI: 0x08;  MISO: 0x00
5.408925840000000,SPI,MOSI: 0xB3;  MISO: 0x00
5.409235220000000,SPI,MOSI: 0x16;  MISO: 0x00
5.409576700000000,SPI,MOSI: 0x12;  MISO: 0x00
5.409866200000000,SPI,MOSI: 0x88;  MISO: 0x00
5.409946240000000,SPI,MOSI: 0xA4;  MISO: 0x00
5.410207000000000,SPI,MOSI: 0x08;  MISO: 0x00
5.410287040000000,SPI,MOSI: 0x7F;  MISO: 0x00
5.410546620000000,SPI,MOSI: 0x08;  MISO: 0x00
5.410626640000000,SPI,MOSI: 0x00;  MISO: 0x00
5.410889380000000,SPI,MOSI: 0x88;  MISO: 0x00
5.410969420000000,SPI,MOSI: 0x70;  MISO: 0x00
5.411228940000000,SPI,MOSI: 0x08;  MISO: 0x00
5.411308960000000,SPI,MOSI: 0x80;  MISO: 0x00
5.411569600000000,SPI,MOSI: 0x08;  MISO: 0x00
5.411649620000000,SPI,MOSI: 0x91;  MISO: 0x00
5.411909780000000,SPI,MOSI: 0x08;  MISO: 0x00
5.411989800000000,SPI,MOSI: 0x68;  MISO: 0x00
5.412250200000000,SPI,MOSI: 0x08;  MISO: 0x00
5.412330220000000,SPI,MOSI: 0x48;  MISO: 0x00
5.412592840000000,SPI,MOSI: 0x08;  MISO: 0x00
5.412672880000000,SPI,MOSI: 0x0B;  MISO: 0x00
5.412932840000000,SPI,MOSI: 0x08;  MISO: 0x00
5.413012880000000,SPI,MOSI: 0x03;  MISO: 0x00
5.413269500000000,SPI,MOSI: 0x08;  MISO: 0x00
5.413349520000000,SPI,MOSI: 0x13;  MISO: 0x00
5.413610520000000,SPI,MOSI: 0x08;  MISO: 0x00
5.413690540000000,SPI,MOSI: 0xF3;  MISO: 0x00
5.413948940000000,SPI,MOSI: 0x08;  MISO: 0x00
5.414028960000000,SPI,MOSI: 0x45;  MISO: 0x00
5.414392620000000,SPI,MOSI: 0x08;  MISO: 0x00
5.414472660000000,SPI,MOSI: 0x16;  MISO: 0x00
5.414720420000000,SPI,MOSI: 0x08;  MISO: 0x00
5.414800440000000,SPI,MOSI: 0xEC;  MISO: 0x00
5.415207580000000,SPI,MOSI: 0x08;  MISO: 0x00
5.415555180000000,SPI,MOSI: 0x08;  MISO: 0x00
5.415635220000000,SPI,MOSI: 0xAC;  MISO: 0x00
5.415895460000000,SPI,MOSI: 0x08;  MISO: 0x00
5.415975480000000,SPI,MOSI: 0x01;  MISO: 0x00
5.416234140000000,SPI,MOSI: 0x08;  MISO: 0x00
5.416314160000000,SPI,MOSI: 0x71;  MISO: 0x00
5.416575400000000,SPI,MOSI: 0x08;  MISO: 0x00
5.416655440000000,SPI,MOSI: 0xD2;  MISO: 0x00
5.416918820000000,SPI,MOSI: 0x08;  MISO: 0x00
5.417260200000000,SPI,MOSI: 0x08;  MISO: 0x00
5.417340220000000,SPI,MOSI: 0xEF;  MISO: 0x00
5.417602320000000,SPI,MOSI: 0x08;  MISO: 0x00
5.417682360000000,SPI,MOSI: 0x4A;  MISO: 0x00
5.417941260000000,SPI,MOSI: 0x08;  MISO: 0x00
5.418021280000000,SPI,MOSI: 0x01;  MISO: 0x00
5.418280320000000,SPI,MOSI: 0x08;  MISO: 0x00
5.418360360000000,SPI,MOSI: 0xFA;  MISO: 0x00
5.418621140000000,SPI,MOSI: 0x08;  MISO: 0x00
5.418701160000000,SPI,MOSI: 0xCF;  MISO: 0x00
5.418960320000000,SPI,MOSI: 0x08;  MISO: 0x00
5.419040340000000,SPI,MOSI: 0x70;  MISO: 0x00
5.419352460000000,SPI,MOSI: 0x00;  MISO: 0x00
5.419644780000000,SPI,MOSI: 0x08;  MISO: 0x00
5.419724800000000,SPI,MOSI: 0x00;  MISO: 0x00
5.419987040000000,SPI,MOSI: 0x08;  MISO: 0x00
5.420067080000000,SPI,MOSI: 0xBF;  MISO: 0x00
5.420324700000000,SPI,MOSI: 0x88;  MISO: 0x00
5.420404740000000,SPI,MOSI: 0xB9;  MISO: 0x00
5.420665140000000,SPI,MOSI: 0x08;  MISO: 0x00
5.420745180000000,SPI,MOSI: 0x7B;  MISO: 0x00
5.421006240000000,SPI,MOSI: 0x08;  MISO: 0x00
5.421086260000000,SPI,MOSI: 0xC7;  MISO: 0x00
5.421349060000000,SPI,MOSI: 0x08;  MISO: 0x00
5.421429080000000,SPI,MOSI: 0x73;  MISO: 0x00
5.421688360000000,SPI,MOSI: 0x08;  MISO: 0x00
5.421768380000000,SPI,MOSI: 0x58;  MISO: 0x00
5.422026860000000,SPI,MOSI: 0x08;  MISO: 0x00
5.422106880000000,SPI,MOSI: 0x70;  MISO: 0x00
5.422367380000000,SPI,MOSI: 0x08;  MISO: 0x00
5.422447400000000,SPI,MOSI: 0xA0;  MISO: 0x00
5.422711880000000,SPI,MOSI: 0x08;  MISO: 0x00
5.422791900000000,SPI,MOSI: 0x87;  MISO: 0x00
5.423056740000000,SPI,MOSI: 0x08;  MISO: 0x00
5.423402200000000,SPI,MOSI: 0x08;  MISO: 0x00
5.423482240000000,SPI,MOSI: 0x2C;  MISO: 0x00
5.423741520000000,SPI,MOSI: 0x08;  MISO: 0x00
5.423821540000000,SPI,MOSI: 0x3B;  MISO: 0x00
5.424082820000000,SPI,MOSI: 0x08;  MISO: 0x00
5.424162860000000,SPI,MOSI: 0x8D;  MISO: 0x00
5.424448460000000,SPI,MOSI: 0x08;  MISO: 0x00
5.424528480000000,SPI,MOSI: 0x77;  MISO: 0x00
5.424793640000000,SPI,MOSI: 0x08;  MISO: 0x00
5.424873660000000,SPI,MOSI: 0xCE;  MISO: 0x00
5.425135880000000,SPI,MOSI: 0x08;  MISO: 0x00
5.425215900000000,SPI,MOSI: 0x0F;  MISO: 0x00
5.425476660000000,SPI,MOSI: 0x08;  MISO: 0x00
5.425556680000000,SPI,MOSI: 0x52;  MISO: 0x00
5.425820080000000,SPI,MOSI: 0x08;  MISO: 0x00
5.425900100000000,SPI,MOSI: 0x5F;  MISO: 0x00
5.426161520000000,SPI,MOSI: 0x08;  MISO: 0x00
5.426241540000000,SPI,MOSI: 0xA2;  MISO: 0x00
5.426501800000000,SPI,MOSI: 0x08;  MISO: 0x00
5.426581820000000,SPI,MOSI: 0x00;  MISO: 0x00
5.426842320000000,SPI,MOSI: 0x08;  MISO: 0x00
5.426922340000000,SPI,MOSI: 0x75;  MISO: 0x00
5.427185360000000,SPI,MOSI: 0x08;  MISO: 0x00
5.427265380000000,SPI,MOSI: 0xF9;  MISO: 0x00
5.427526640000000,SPI,MOSI: 0x08;  MISO: 0x00
5.427606660000000,SPI,MOSI: 0xAD;  MISO: 0x00
5.427866260000000,SPI,MOSI: 0x08;  MISO: 0x00
5.427946300000000,SPI,MOSI: 0xA2;  MISO: 0x00
5.428208160000000,SPI,MOSI: 0x08;  MISO: 0x00
5.428288180000000,SPI,MOSI: 0xB9;  MISO: 0x00
5.428546260000000,SPI,MOSI: 0x08;  MISO: 0x00
5.428626280000000,SPI,MOSI: 0x80;  MISO: 0x00
5.428884320000000,SPI,MOSI: 0x08;  MISO: 0x00
5.428964340000000,SPI,MOSI: 0x55;  MISO: 0x00
5.429223580000000,SPI,MOSI: 0x08;  MISO: 0x00
5.429303600000000,SPI,MOSI: 0xDF;  MISO: 0x00
5.429563520000000,SPI,MOSI: 0x08;  MISO: 0x00
5.429643540000000,SPI,MOSI: 0x41;  MISO: 0x00
5.429906300000000,SPI,MOSI: 0x08;  MISO: 0x00
5.429986320000000,SPI,MOSI: 0xBF;  MISO: 0x00
5.430244360000000,SPI,MOSI: 0x08;  MISO: 0x00
5.430324380000000,SPI,MOSI: 0x5F;  MISO: 0x00
5.430586820000000,SPI,MOSI: 0x08;  MISO: 0x00
5.430666840000000,SPI,MOSI: 0x4D;  MISO: 0x00
5.430927500000000,SPI,MOSI: 0x08;  MISO: 0x00
5.431007540000000,SPI,MOSI: 0x2A;  MISO: 0x00
5.431265200000000,SPI,MOSI: 0x08;  MISO: 0x00
5.431345220000000,SPI,MOSI: 0x2B;  MISO: 0x00
5.431605500000000,SPI,MOSI: 0x88;  MISO: 0x00
5.431685540000000,SPI,MOSI: 0x81;  MISO: 0x00
5.431947860000000,SPI,MOSI: 0x08;  MISO: 0x00
5.432027880000000,SPI,MOSI: 0xE2;  MISO: 0x00
5.432289960000000,SPI,MOSI: 0x08;  MISO: 0x00
5.432370000000000,SPI,MOSI: 0xF0;  MISO: 0x00
5.432632840000000,SPI,MOSI: 0x08;  MISO: 0x00
5.432712860000000,SPI,MOSI: 0x79;  MISO: 0x00
5.432977280000000,SPI,MOSI: 0x08;  MISO: 0x00
5.433057300000000,SPI,MOSI: 0xAB;  MISO: 0x00
5.433317480000000,SPI,MOSI: 0x08;  MISO: 0x00
5.433397520000000,SPI,MOSI: 0x71;  MISO: 0x00
5.433659160000000,SPI,MOSI: 0x08;  MISO: 0x00
5.433739180000000,SPI,MOSI: 0xB9;  MISO: 0x00
5.434001800000000,SPI,MOSI: 0x08;  MISO: 0x00
5.434081840000000,SPI,MOSI: 0xA8;  MISO: 0x00
5.434451960000000,SPI,MOSI: 0x08;  MISO: 0x00
5.434531980000000,SPI,MOSI: 0x3C;  MISO: 0x00
5.434796400000000,SPI,MOSI: 0x08;  MISO: 0x00
5.434876440000000,SPI,MOSI: 0x28;  MISO: 0x00
5.435136500000000,SPI,MOSI: 0x08;  MISO: 0x00
5.435216520000000,SPI,MOSI: 0xD9;  MISO: 0x00
5.435476920000000,SPI,MOSI: 0x08;  MISO: 0x00
5.435556960000000,SPI,MOSI: 0x45;  MISO: 0x00
5.435817760000000,SPI,MOSI: 0x08;  MISO: 0x00
5.435897800000000,SPI,MOSI: 0x77;  MISO: 0x00
5.436158120000000,SPI,MOSI: 0x08;  MISO: 0x00
5.436238140000000,SPI,MOSI: 0xF3;  MISO: 0x00
5.436497720000000,SPI,MOSI: 0x08;  MISO: 0x00
5.436577740000000,SPI,MOSI: 0xB0;  MISO: 0x00
5.436842180000000,SPI,MOSI: 0x08;  MISO: 0x00
5.436922220000000,SPI,MOSI: 0xCD;  MISO: 0x00
5.437180880000000,SPI,MOSI: 0x08;  MISO: 0x00
5.437260920000000,SPI,MOSI: 0x21;  MISO: 0x00
5.437522020000000,SPI,MOSI: 0x08;  MISO: 0x00
5.437602060000000,SPI,MOSI: 0x2A;  MISO: 0x00
5.437865560000000,SPI,MOSI: 0x08;  MISO: 0x00
5.437945580000000,SPI,MOSI: 0xC9;  MISO: 0x00
5.438206780000000,SPI,MOSI: 0x08;  MISO: 0x00
5.438286800000000,SPI,MOSI: 0x03;  MISO: 0x00
5.438545640000000,SPI,MOSI: 0x08;  MISO: 0x00
5.438625660000000,SPI,MOSI: 0xD8;  MISO: 0x00
5.438888360000000,SPI,MOSI: 0x08;  MISO: 0x00
5.438968380000000,SPI,MOSI: 0x4E;  MISO: 0x00
5.439228680000000,SPI,MOSI: 0x08;  MISO: 0x00
5.439308700000000,SPI,MOSI: 0xF1;  MISO: 0x00
5.439568200000000,SPI,MOSI: 0x08;  MISO: 0x00
5.439648220000000,SPI,MOSI: 0xC2;  MISO: 0x00
5.439908500000000,SPI,MOSI: 0x08;  MISO: 0x00
5.439988520000000,SPI,MOSI: 0x68;  MISO: 0x00
5.440249000000000,SPI,MOSI: 0x08;  MISO: 0x00
5.440329020000000,SPI,MOSI: 0x63;  MISO: 0x00
5.440592220000000,SPI,MOSI: 0x88;  MISO: 0x00
5.440672260000000,SPI,MOSI: 0xC4;  MISO: 0x00
5.440984780000000,SPI,MOSI: 0x19;  MISO: 0x00
5.441275120000000,SPI,MOSI: 0x08;  MISO: 0x00
5.441355160000000,SPI,MOSI: 0x05;  MISO: 0x00
5.441614140000000,SPI,MOSI: 0x08;  MISO: 0x00
5.441694180000000,SPI,MOSI: 0x66;  MISO: 0x00
5.441954660000000,SPI,MOSI: 0x08;  MISO: 0x00
5.442034680000000,SPI,MOSI: 0x78;  MISO: 0x00
5.442297860000000,SPI,MOSI: 0x08;  MISO: 0x00
5.442377900000000,SPI,MOSI: 0xD9;  MISO: 0x00
5.442639520000000,SPI,MOSI: 0x08;  MISO: 0x00
5.442719540000000,SPI,MOSI: 0x41;  MISO: 0x00
5.442978420000000,SPI,MOSI: 0x08;  MISO: 0x00
5.443058460000000,SPI,MOSI: 0x22;  MISO: 0x00
5.443318840000000,SPI,MOSI: 0x08;  MISO: 0x00
5.443398880000000,SPI,MOSI: 0x5E;  MISO: 0x00
5.443658660000000,SPI,MOSI: 0x08;  MISO: 0x00
5.443738700000000,SPI,MOSI: 0x90;  MISO: 0x00
5.443998780000000,SPI,MOSI: 0x08;  MISO: 0x00
5.444078800000000,SPI,MOSI: 0xC1;  MISO: 0x00
5.444415540000000,SPI,MOSI: 0x08;  MISO: 0x00
5.444495560000000,SPI,MOSI: 0xB5;  MISO: 0x00
5.444755880000000,SPI,MOSI: 0x08;  MISO: 0x00
5.444835920000000,SPI,MOSI: 0x8F;  MISO: 0x00
5.445095740000000,SPI,MOSI: 0x08;  MISO: 0x00
5.445175760000000,SPI,MOSI: 0xB1;  MISO: 0x00
5.445436260000000,SPI,MOSI: 0x08;  MISO: 0x00
5.445516280000000,SPI,MOSI: 0xF7;  MISO: 0x00
5.445776860000000,SPI,MOSI: 0x88;  MISO: 0x00
5.445856900000000,SPI,MOSI: 0x1F;  MISO: 0x00
5.446118360000000,SPI,MOSI: 0x08;  MISO: 0x00
5.446198380000000,SPI,MOSI: 0x8D;  MISO: 0x00
5.446458620000000,SPI,MOSI: 0x08;  MISO: 0x00
5.446538640000000,SPI,MOSI: 0xDE;  MISO: 0x00
5.446800760000000,SPI,MOSI: 0x08;  MISO: 0x00
5.446880800000000,SPI,MOSI: 0x9A;  MISO: 0x00
5.447141240000000,SPI,MOSI: 0x08;  MISO: 0x00
5.447221280000000,SPI,MOSI: 0xEB;  MISO: 0x00
5.447483080000000,SPI,MOSI: 0x88;  MISO: 0x00
5.447563120000000,SPI,MOSI: 0xAE;  MISO: 0x00
5.447823880000000,SPI,MOSI: 0x08;  MISO: 0x00
5.448164600000000,SPI,MOSI: 0x08;  MISO: 0x00
5.448244620000000,SPI,MOSI: 0x79;  MISO: 0x00
5.448505960000000,SPI,MOSI: 0x08;  MISO: 0x00
5.448585980000000,SPI,MOSI: 0xDA;  MISO: 0x00
5.448847000000000,SPI,MOSI: 0x08;  MISO: 0x00
5.448927020000000,SPI,MOSI: 0xF6;  MISO: 0x00
5.449186620000000,SPI,MOSI: 0x08;  MISO: 0x00
5.449577880000000,SPI,MOSI: 0x08;  MISO: 0x00
5.449868980000000,SPI,MOSI: 0x08;  MISO: 0x00
5.449949000000000,SPI,MOSI: 0x60;  MISO: 0x00
5.450212480000000,SPI,MOSI: 0x08;  MISO: 0x00
5.450292520000000,SPI,MOSI: 0xF2;  MISO: 0x00
5.450550900000000,SPI,MOSI: 0x08;  MISO: 0x00
5.450630940000000,SPI,MOSI: 0x25;  MISO: 0x00
5.450893620000000,SPI,MOSI: 0x08;  MISO: 0x00
5.450973640000000,SPI,MOSI: 0xC3;  MISO: 0x00
5.451231780000000,SPI,MOSI: 0x08;  MISO: 0x00
5.451311800000000,SPI,MOSI: 0x1C;  MISO: 0x00
5.451571640000000,SPI,MOSI: 0x08;  MISO: 0x00
5.451651660000000,SPI,MOSI: 0x5E;  MISO: 0x00
5.451912240000000,SPI,MOSI: 0x08;  MISO: 0x00
5.451992280000000,SPI,MOSI: 0x15;  MISO: 0x00
5.452257140000000,SPI,MOSI: 0x08;  MISO: 0x00
5.452337160000000,SPI,MOSI: 0x08;  MISO: 0x00
5.452600600000000,SPI,MOSI: 0x08;  MISO: 0x00
5.452680620000000,SPI,MOSI: 0x38;  MISO: 0x00
5.452942600000000,SPI,MOSI: 0x08;  MISO: 0x00
5.453282620000000,SPI,MOSI: 0x08;  MISO: 0x00
5.453362660000000,SPI,MOSI: 0x09;  MISO: 0x00
5.453623900000000,SPI,MOSI: 0x08;  MISO: 0x00
5.453703920000000,SPI,MOSI: 0x5C;  MISO: 0x00
5.453962700000000,SPI,MOSI: 0x08;  MISO: 0x00
5.454042720000000,SPI,MOSI: 0x34;  MISO: 0x00
5.454414180000000,SPI,MOSI: 0x08;  MISO: 0x00
5.454494220000000,SPI,MOSI: 0xEE;  MISO: 0x00
5.454741560000000,SPI,MOSI: 0x08;  MISO: 0x00
5.454821580000000,SPI,MOSI: 0x41;  MISO: 0x00
5.455083380000000,SPI,MOSI: 0x08;  MISO: 0x00
5.455163420000000,SPI,MOSI: 0x8D;  MISO: 0x00
5.455423040000000,SPI,MOSI: 0x08;  MISO: 0x00
5.455503080000000,SPI,MOSI: 0x54;  MISO: 0x00
5.455762440000000,SPI,MOSI: 0x08;  MISO: 0x00
5.455842480000000,SPI,MOSI: 0xB1;  MISO: 0x00
5.456105140000000,SPI,MOSI: 0x08;  MISO: 0x00
5.456185160000000,SPI,MOSI: 0x48;  MISO: 0x00
5.456450740000000,SPI,MOSI: 0x88;  MISO: 0x00
5.456530780000000,SPI,MOSI: 0x98;  MISO: 0x00
5.456791340000000,SPI,MOSI: 0x08;  MISO: 0x00
5.457133860000000,SPI,MOSI: 0x08;  MISO: 0x00
5.457213900000000,SPI,MOSI: 0x0D;  MISO: 0x00
5.457476180000000,SPI,MOSI: 0x08;  MISO: 0x00
5.457556200000000,SPI,MOSI: 0x9F;  MISO: 0x00
5.457867680000000,SPI,MOSI: 0x0B;  MISO: 0x00
5.458158520000000,SPI,MOSI: 0x08;  MISO: 0x00
5.458238540000000,SPI,MOSI: 0x1C;  MISO: 0x00
5.458499920000000,SPI,MOSI: 0x08;  MISO: 0x00
5.458579940000000,SPI,MOSI: 0xD9;  MISO: 0x00
5.458840420000000,SPI,MOSI: 0x08;  MISO: 0x00
5.459185260000000,SPI,MOSI: 0x08;  MISO: 0x00
5.459265280000000,SPI,MOSI: 0x9D;  MISO: 0x00
5.459526260000000,SPI,MOSI: 0x08;  MISO: 0x00
5.459606300000000,SPI,MOSI: 0xF0;  MISO: 0x00
5.459867440000000,SPI,MOSI: 0x08;  MISO: 0x00
5.459947460000000,SPI,MOSI: 0xAE;  MISO: 0x00
5.460210320000000,SPI,MOSI: 0x08;  MISO: 0x00
5.460290340000000,SPI,MOSI: 0x1E;  MISO: 0x00
5.460551220000000,SPI,MOSI: 0x08;  MISO: 0x00
5.460631240000000,SPI,MOSI: 0xF8;  MISO: 0x00
5.460891180000000,SPI,MOSI: 0x08;  MISO: 0x00
5.460971200000000,SPI,MOSI: 0xB3;  MISO: 0x00
5.461232260000000,SPI,MOSI: 0x08;  MISO: 0x00
5.461312280000000,SPI,MOSI: 0xD5;  MISO: 0x00
5.461573480000000,SPI,MOSI: 0x08;  MISO: 0x00
5.461653500000000,SPI,MOSI: 0x6D;  MISO: 0x00
5.462256000000000,SPI,MOSI: 0x08;  MISO: 0x00
5.462336020000000,SPI,MOSI: 0x0C;  MISO: 0x00
5.462595020000000,SPI,MOSI: 0x08;  MISO: 0x00
5.462675060000000,SPI,MOSI: 0x3D;  MISO: 0x00
5.462936640000000,SPI,MOSI: 0x88;  MISO: 0x00
5.463016680000000,SPI,MOSI: 0x76;  MISO: 0x00
5.463279220000000,SPI,MOSI: 0x08;  MISO: 0x00
5.463359240000000,SPI,MOSI: 0xC6;  MISO: 0x00
5.463620480000000,SPI,MOSI: 0x08;  MISO: 0x00
5.463700520000000,SPI,MOSI: 0xAC;  MISO: 0x00
5.463962600000000,SPI,MOSI: 0x08;  MISO: 0x00
5.464042620000000,SPI,MOSI: 0x2E;  MISO: 0x00
5.464364340000000,SPI,MOSI: 0x08;  MISO: 0x00
5.464444380000000,SPI,MOSI: 0xFF;  MISO: 0x00
5.464712800000000,SPI,MOSI: 0x08;  MISO: 0x00
5.464792820000000,SPI,MOSI: 0x8E;  MISO: 0x00
5.465052460000000,SPI,MOSI: 0x08;  MISO: 0x00
5.465132480000000,SPI,MOSI: 0x5D;  MISO: 0x00
5.465390240000000,SPI,MOSI: 0x08;  MISO: 0x00
5.465470260000000,SPI,MOSI: 0x7B;  MISO: 0x00
5.465732620000000,SPI,MOSI: 0x88;  MISO: 0x00
5.465812660000000,SPI,MOSI: 0x8E;  MISO: 0x00
5.466073640000000,SPI,MOSI: 0x08;  MISO: 0x00
5.466153660000000,SPI,MOSI: 0x61;  MISO: 0x00
5.466413640000000,SPI,MOSI: 0x88;  MISO: 0x00
5.466493680000000,SPI,MOSI: 0xEE;  MISO: 0x00
5.466752240000000,SPI,MOSI: 0x08;  MISO: 0x00
5.466832260000000,SPI,MOSI: 0xCE;  MISO: 0x00
5.467091680000000,SPI,MOSI: 0x88;  MISO: 0x00
5.467171720000000,SPI,MOSI: 0x33;  MISO: 0x00
5.467431340000000,SPI,MOSI: 0x08;  MISO: 0x00
5.467511380000000,SPI,MOSI: 0xD8;  MISO: 0x00
5.467773020000000,SPI,MOSI: 0x08;  MISO: 0x00
5.467853060000000,SPI,MOSI: 0xB2;  MISO: 0x00
5.468113980000000,SPI,MOSI: 0x08;  MISO: 0x00
5.468194020000000,SPI,MOSI: 0x32;  MISO: 0x00
5.468456540000000,SPI,MOSI: 0x08;  MISO: 0x00
5.468536560000000,SPI,MOSI: 0x9E;  MISO: 0x00
5.468797080000000,SPI,MOSI: 0x08;  MISO: 0x00
5.468877120000000,SPI,MOSI: 0x29;  MISO: 0x00
5.469136420000000,SPI,MOSI: 0x88;  MISO: 0x00
5.469216460000000,SPI,MOSI: 0x5D;  MISO: 0x00
5.469475760000000,SPI,MOSI: 0x08;  MISO: 0x00
5.469555800000000,SPI,MOSI: 0x49;  MISO: 0x00
5.469815440000000,SPI,MOSI: 0x08;  MISO: 0x00
5.469895460000000,SPI,MOSI: 0x33;  MISO: 0x00
5.470156640000000,SPI,MOSI: 0x08;  MISO: 0x00
5.470236680000000,SPI,MOSI: 0x0E;  MISO: 0x00
5.470499740000000,SPI,MOSI: 0x08;  MISO: 0x00
5.470840200000000,SPI,MOSI: 0x08;  MISO: 0x00
5.470920220000000,SPI,MOSI: 0x63;  MISO: 0x00
5.471179940000000,SPI,MOSI: 0x08;  MISO: 0x00
5.471259960000000,SPI,MOSI: 0xE7;  MISO: 0x00
5.471521020000000,SPI,MOSI: 0x08;  MISO: 0x00
5.471601040000000,SPI,MOSI: 0xAD;  MISO: 0x00
5.471953840000000,SPI,MOSI: 0x08;  MISO: 0x00
5.472033880000000,SPI,MOSI: 0x0B;  MISO: 0x00
5.472302080000000,SPI,MOSI: 0x08;  MISO: 0x00
5.472382120000000,SPI,MOSI: 0xF8;  MISO: 0x00
5.472694680000000,SPI,MOSI: 0x00;  MISO: 0x00
5.472984640000000,SPI,MOSI: 0x88;  MISO: 0x00
5.473064680000000,SPI,MOSI: 0xA0;  MISO: 0x00
5.473326260000000,SPI,MOSI: 0x08;  MISO: 0x00
5.473406280000000,SPI,MOSI: 0x3D;  MISO: 0x00
5.473666380000000,SPI,MOSI: 0x08;  MISO: 0x00
5.473746400000000,SPI,MOSI: 0xC0;  MISO: 0x00
5.474008340000000,SPI,MOSI: 0x08;  MISO: 0x00
5.474088380000000,SPI,MOSI: 0x11;  MISO: 0x00
5.474463400000000,SPI,MOSI: 0x08;  MISO: 0x00
5.474543420000000,SPI,MOSI: 0xEC;  MISO: 0x00
5.474803920000000,SPI,MOSI: 0x08;  MISO: 0x00
5.474883940000000,SPI,MOSI: 0x22;  MISO: 0x00
5.475144680000000,SPI,MOSI: 0x08;  MISO: 0x00
5.475224720000000,SPI,MOSI: 0x19;  MISO: 0x00
5.475485740000000,SPI,MOSI: 0x08;  MISO: 0x00
5.475565780000000,SPI,MOSI: 0xE4;  MISO: 0x00
5.475876100000000,SPI,MOSI: 0x07;  MISO: 0x00
5.476165980000000,SPI,MOSI: 0x08;  MISO: 0x00
5.476246020000000,SPI,MOSI: 0x68;  MISO: 0x00
5.476507060000000,SPI,MOSI: 0x08;  MISO: 0x00
5.476587100000000,SPI,MOSI: 0x8E;  MISO: 0x00
5.476846160000000,SPI,MOSI: 0x08;  MISO: 0x00
5.476926200000000,SPI,MOSI: 0x03;  MISO: 0x00
5.477188500000000,SPI,MOSI: 0x08;  MISO: 0x00
5.477268520000000,SPI,MOSI: 0xEB;  MISO: 0x00
5.477530460000000,SPI,MOSI: 0x08;  MISO: 0x00
5.477610500000000,SPI,MOSI: 0x60;  MISO: 0x00
5.477872400000000,SPI,MOSI: 0x08;  MISO: 0x00
5.477952420000000,SPI,MOSI: 0x1C;  MISO: 0x00
5.478213260000000,SPI,MOSI: 0x08;  MISO: 0x00
5.478293300000000,SPI,MOSI: 0x0F;  MISO: 0x00
5.478554820000000,SPI,MOSI: 0x08;  MISO: 0x00
5.478634840000000,SPI,MOSI: 0x6B;  MISO: 0x00
5.478895760000000,SPI,MOSI: 0x08;  MISO: 0x00
5.478975800000000,SPI,MOSI: 0x6C;  MISO: 0x00
5.479237780000000,SPI,MOSI: 0x08;  MISO: 0x00
5.479317800000000,SPI,MOSI: 0x56;  MISO: 0x00
5.479575120000000,SPI,MOSI: 0x08;  MISO: 0x00
5.479655140000000,SPI,MOSI: 0xF2;  MISO: 0x00
5.479913200000000,SPI,MOSI: 0x08;  MISO: 0x00
5.479993220000000,SPI,MOSI: 0xF9;  MISO: 0x00
5.480593820000000,SPI,MOSI: 0x08;  MISO: 0x00
5.480673860000000,SPI,MOSI: 0x7A;  MISO: 0x00
5.480936020000000,SPI,MOSI: 0x08;  MISO: 0x00
5.481016040000000,SPI,MOSI: 0x08;  MISO: 0x00
5.481276120000000,SPI,MOSI: 0x08;  MISO: 0x00
5.481356140000000,SPI,MOSI: 0xA4;  MISO: 0x00
5.481619980000000,SPI,MOSI: 0x08;  MISO: 0x00
5.481700000000000,SPI,MOSI: 0x19;  MISO: 0x00
5.481959480000000,SPI,MOSI: 0x08;  MISO: 0x00
5.482039500000000,SPI,MOSI: 0x18;  MISO: 0x00
5.482299340000000,SPI,MOSI: 0x08;  MISO: 0x00
5.482379380000000,SPI,MOSI: 0xC3;  MISO: 0x00
5.482641580000000,SPI,MOSI: 0x08;  MISO: 0x00
5.482721600000000,SPI,MOSI: 0x56;  MISO: 0x00
5.482981620000000,SPI,MOSI: 0x88;  MISO: 0x00
5.483061660000000,SPI,MOSI: 0x38;  MISO: 0x00
5.483323460000000,SPI,MOSI: 0x08;  MISO: 0x00
5.483403480000000,SPI,MOSI: 0xAC;  MISO: 0x00
5.483664300000000,SPI,MOSI: 0x08;  MISO: 0x00
5.483744340000000,SPI,MOSI: 0xDF;  MISO: 0x00
5.484003680000000,SPI,MOSI: 0x08;  MISO: 0x00
5.484083720000000,SPI,MOSI: 0x86;  MISO: 0x00
5.484413820000000,SPI,MOSI: 0x08;  MISO: 0x00
5.484493840000000,SPI,MOSI: 0xF0;  MISO: 0x00
5.484756220000000,SPI,MOSI: 0x08;  MISO: 0x00
5.484836240000000,SPI,MOSI: 0xC2;  MISO: 0x00
5.485098360000000,SPI,MOSI: 0x08;  MISO: 0x00
5.485178380000000,SPI,MOSI: 0x9E;  MISO: 0x00
5.485439820000000,SPI,MOSI: 0x08;  MISO: 0x00
5.485519840000000,SPI,MOSI: 0x01;  MISO: 0x00
5.485781580000000,SPI,MOSI: 0x08;  MISO: 0x00
5.485861620000000,SPI,MOSI: 0x33;  MISO: 0x00
5.486124900000000,SPI,MOSI: 0x08;  MISO: 0x00
5.486204920000000,SPI,MOSI: 0x3F;  MISO: 0x00
5.486465100000000,SPI,MOSI: 0x08;  MISO: 0x00
5.486545120000000,SPI,MOSI: 0xFC;  MISO: 0x00
5.486806680000000,SPI,MOSI: 0x08;  MISO: 0x00
5.486886720000000,SPI,MOSI: 0xD7;  MISO: 0x00
5.487161620000000,SPI,MOSI: 0x08;  MISO: 0x00
5.487241640000000,SPI,MOSI: 0x51;  MISO: 0x00
5.487513000000000,SPI,MOSI: 0x08;  MISO: 0x00
5.487593040000000,SPI,MOSI: 0xF9;  MISO: 0x00
5.487851100000000,SPI,MOSI: 0x08;  MISO: 0x00
5.487931120000000,SPI,MOSI: 0x7F;  MISO: 0x00
5.488191400000000,SPI,MOSI: 0x08;  MISO: 0x00
5.488271420000000,SPI,MOSI: 0xB3;  MISO: 0x00
5.488531560000000,SPI,MOSI: 0x08;  MISO: 0x00
5.488611600000000,SPI,MOSI: 0xB3;  MISO: 0x00
5.488874500000000,SPI,MOSI: 0x08;  MISO: 0x00
5.489279980000000,SPI,MOSI: 0x08;  MISO: 0x00
5.489360000000000,SPI,MOSI: 0xA4;  MISO: 0x00
5.489623620000000,SPI,MOSI: 0x08;  MISO: 0x00
5.489703660000000,SPI,MOSI: 0x7F;  MISO: 0x00
5.490013880000000,SPI,MOSI: 0x00;  MISO: 0x00
5.490304500000000,SPI,MOSI: 0x08;  MISO: 0x00
5.490384520000000,SPI,MOSI: 0x70;  MISO: 0x00
5.490646060000000,SPI,MOSI: 0x08;  MISO: 0x00
5.490726100000000,SPI,MOSI: 0x80;  MISO: 0x00
5.490985260000000,SPI,MOSI: 0x08;  MISO: 0x00
5.491065300000000,SPI,MOSI: 0x91;  MISO: 0x00
5.491322680000000,SPI,MOSI: 0x08;  MISO: 0x00
5.491402700000000,SPI,MOSI: 0x68;  MISO: 0x00
5.491662400000000,SPI,MOSI: 0x08;  MISO: 0x00
5.491742420000000,SPI,MOSI: 0x48;  MISO: 0x00
5.492003900000000,SPI,MOSI: 0x08;  MISO: 0x00
5.492083920000000,SPI,MOSI: 0x0B;  MISO: 0x00
5.492345100000000,SPI,MOSI: 0x08;  MISO: 0x00
5.492425140000000,SPI,MOSI: 0x03;  MISO: 0x00
5.492686360000000,SPI,MOSI: 0x08;  MISO: 0x00
5.492766380000000,SPI,MOSI: 0x13;  MISO: 0x00
5.493027800000000,SPI,MOSI: 0x08;  MISO: 0x00
5.493107820000000,SPI,MOSI: 0xF3;  MISO: 0x00
5.493369760000000,SPI,MOSI: 0x08;  MISO: 0x00
5.493449780000000,SPI,MOSI: 0x45;  MISO: 0x00
5.493710540000000,SPI,MOSI: 0x08;  MISO: 0x00
5.493790580000000,SPI,MOSI: 0x16;  MISO: 0x00
5.494050240000000,SPI,MOSI: 0x08;  MISO: 0x00
5.494130260000000,SPI,MOSI: 0xEC;  MISO: 0x00
5.494493560000000,SPI,MOSI: 0x08;  MISO: 0x00
5.494835780000000,SPI,MOSI: 0x08;  MISO: 0x00
5.494915800000000,SPI,MOSI: 0xAC;  MISO: 0x00
5.495177080000000,SPI,MOSI: 0x08;  MISO: 0x00
5.495257100000000,SPI,MOSI: 0x01;  MISO: 0x00
5.495515800000000,SPI,MOSI: 0x08;  MISO: 0x00
5.495595840000000,SPI,MOSI: 0x71;  MISO: 0x00
5.495855020000000,SPI,MOSI: 0x08;  MISO: 0x00
5.495935040000000,SPI,MOSI: 0xD2;  MISO: 0x00
5.496196720000000,SPI,MOSI: 0x08;  MISO: 0x00
5.496276760000000,SPI,MOSI: 0x36;  MISO: 0x00
5.496534560000000,SPI,MOSI: 0x08;  MISO: 0x00
5.496614600000000,SPI,MOSI: 0xEF;  MISO: 0x00
5.496877700000000,SPI,MOSI: 0x08;  MISO: 0x00
5.497219260000000,SPI,MOSI: 0x08;  MISO: 0x00
5.497299280000000,SPI,MOSI: 0x01;  MISO: 0x00
5.497559140000000,SPI,MOSI: 0x08;  MISO: 0x00
5.497639180000000,SPI,MOSI: 0xFA;  MISO: 0x00
5.497898940000000,SPI,MOSI: 0x08;  MISO: 0x00
5.497978960000000,SPI,MOSI: 0xCF;  MISO: 0x00
5.498239560000000,SPI,MOSI: 0x08;  MISO: 0x00
5.498319580000000,SPI,MOSI: 0x70;  MISO: 0x00
5.498580860000000,SPI,MOSI: 0x08;  MISO: 0x00
5.498660900000000,SPI,MOSI: 0x03;  MISO: 0x00
5.498920100000000,SPI,MOSI: 0x08;  MISO: 0x00
5.499000140000000,SPI,MOSI: 0x00;  MISO: 0x00
5.499259280000000,SPI,MOSI: 0x08;  MISO: 0x00
5.499339300000000,SPI,MOSI: 0xBF;  MISO: 0x00
5.499600960000000,SPI,MOSI: 0x08;  MISO: 0x00
5.499680980000000,SPI,MOSI: 0xB9;  MISO: 0x00
5.499943300000000,SPI,MOSI: 0x08;  MISO: 0x00
5.500023320000000,SPI,MOSI: 0x7B;  MISO: 0x00
5.500284020000000,SPI,MOSI: 0x08;  MISO: 0x00
5.500364060000000,SPI,MOSI: 0xC7;  MISO: 0x00
5.500625680000000,SPI,MOSI: 0x08;  MISO: 0x00
5.500705700000000,SPI,MOSI: 0x73;  MISO: 0x00
5.500966480000000,SPI,MOSI: 0x08;  MISO: 0x00
5.501046500000000,SPI,MOSI: 0x58;  MISO: 0x00
5.501305240000000,SPI,MOSI: 0x08;  MISO: 0x00
5.501385280000000,SPI,MOSI: 0x70;  MISO: 0x00
5.501645020000000,SPI,MOSI: 0x08;  MISO: 0x00
5.501725040000000,SPI,MOSI: 0xA0;  MISO: 0x00
5.501988660000000,SPI,MOSI: 0x08;  MISO: 0x00
5.502068680000000,SPI,MOSI: 0x87;  MISO: 0x00
5.502331460000000,SPI,MOSI: 0x08;  MISO: 0x00
5.502411480000000,SPI,MOSI: 0x9C;  MISO: 0x00
5.502672560000000,SPI,MOSI: 0x08;  MISO: 0x00
5.502752580000000,SPI,MOSI: 0x2C;  MISO: 0x00
5.503012620000000,SPI,MOSI: 0x08;  MISO: 0x00
5.503092640000000,SPI,MOSI: 0x3B;  MISO: 0x00
5.503353380000000,SPI,MOSI: 0x88;  MISO: 0x00
5.503433420000000,SPI,MOSI: 0x8D;  MISO: 0x00
5.503695280000000,SPI,MOSI: 0x08;  MISO: 0x00
5.503775300000000,SPI,MOSI: 0x77;  MISO: 0x00
5.504037300000000,SPI,MOSI: 0x08;  MISO: 0x00
5.504117340000000,SPI,MOSI: 0xCE;  MISO: 0x00
5.504419780000000,SPI,MOSI: 0x08;  MISO: 0x00
5.504499820000000,SPI,MOSI: 0x0F;  MISO: 0x00
5.504760680000000,SPI,MOSI: 0x08;  MISO: 0x00
5.504840720000000,SPI,MOSI: 0x52;  MISO: 0x00
5.505101780000000,SPI,MOSI: 0x08;  MISO: 0x00
5.505181820000000,SPI,MOSI: 0x5F;  MISO: 0x00
5.505441200000000,SPI,MOSI: 0x08;  MISO: 0x00
5.505521240000000,SPI,MOSI: 0xA2;  MISO: 0x00
5.505783180000000,SPI,MOSI: 0x08;  MISO: 0x00
5.505863220000000,SPI,MOSI: 0x00;  MISO: 0x00
5.506126240000000,SPI,MOSI: 0x08;  MISO: 0x00
5.506206260000000,SPI,MOSI: 0x75;  MISO: 0x00
5.506466600000000,SPI,MOSI: 0x08;  MISO: 0x00
5.506546640000000,SPI,MOSI: 0xF9;  MISO: 0x00
5.506807920000000,SPI,MOSI: 0x08;  MISO: 0x00
5.507148320000000,SPI,MOSI: 0x08;  MISO: 0x00
5.507228360000000,SPI,MOSI: 0xA2;  MISO: 0x00
5.507488920000000,SPI,MOSI: 0x08;  MISO: 0x00
5.507568940000000,SPI,MOSI: 0xB9;  MISO: 0x00
5.507829120000000,SPI,MOSI: 0x08;  MISO: 0x00
5.507909140000000,SPI,MOSI: 0x80;  MISO: 0x00
5.508167720000000,SPI,MOSI: 0x08;  MISO: 0x00
5.508247740000000,SPI,MOSI: 0x55;  MISO: 0x00
5.508509520000000,SPI,MOSI: 0x08;  MISO: 0x00
5.508589560000000,SPI,MOSI: 0xDF;  MISO: 0x00
5.508852000000000,SPI,MOSI: 0x08;  MISO: 0x00
5.508932040000000,SPI,MOSI: 0x41;  MISO: 0x00
5.509192780000000,SPI,MOSI: 0x08;  MISO: 0x00
5.509272800000000,SPI,MOSI: 0xBF;  MISO: 0x00
5.509534040000000,SPI,MOSI: 0x08;  MISO: 0x00
5.509614060000000,SPI,MOSI: 0x5F;  MISO: 0x00
5.509873320000000,SPI,MOSI: 0x08;  MISO: 0x00
5.509953340000000,SPI,MOSI: 0x4D;  MISO: 0x00
5.510213000000000,SPI,MOSI: 0x88;  MISO: 0x00
5.510293040000000,SPI,MOSI: 0x2A;  MISO: 0x00
5.510551160000000,SPI,MOSI: 0x08;  MISO: 0x00
5.510631180000000,SPI,MOSI: 0x2B;  MISO: 0x00
5.510891240000000,SPI,MOSI: 0x08;  MISO: 0x00
5.510971280000000,SPI,MOSI: 0x81;  MISO: 0x00
5.511233380000000,SPI,MOSI: 0x08;  MISO: 0x00
5.511313420000000,SPI,MOSI: 0xE2;  MISO: 0x00
5.511573900000000,SPI,MOSI: 0x08;  MISO: 0x00
5.511653920000000,SPI,MOSI: 0xF0;  MISO: 0x00
5.511913060000000,SPI,MOSI: 0x08;  MISO: 0x00
5.511993080000000,SPI,MOSI: 0x79;  MISO: 0x00
5.512252100000000,SPI,MOSI: 0x08;  MISO: 0x00
5.512332140000000,SPI,MOSI: 0xAB;  MISO: 0x00
5.512595120000000,SPI,MOSI: 0x08;  MISO: 0x00
5.512675140000000,SPI,MOSI: 0x71;  MISO: 0x00
5.512936280000000,SPI,MOSI: 0x08;  MISO: 0x00
5.513016320000000,SPI,MOSI: 0xB9;  MISO: 0x00
5.513275280000000,SPI,MOSI: 0x08;  MISO: 0x00
5.513355320000000,SPI,MOSI: 0xA8;  MISO: 0x00
5.513619860000000,SPI,MOSI: 0x08;  MISO: 0x00
5.513699880000000,SPI,MOSI: 0x3C;  MISO: 0x00
5.513962240000000,SPI,MOSI: 0x08;  MISO: 0x00
5.514042280000000,SPI,MOSI: 0x28;  MISO: 0x00
5.514411800000000,SPI,MOSI: 0x08;  MISO: 0x00
5.514491820000000,SPI,MOSI: 0xD9;  MISO: 0x00
5.514736840000000,SPI,MOSI: 0x08;  MISO: 0x00
